date Fri Jan 12 02:16:23.999 pm 2024
base hex  timestamps absolute
internal events logged
// version 12.0.0
1810.655956 1  CFED94Ax                            Rx   d 8 00 02 00 00 00 00 00 00  Length = 279910 BitCount = 144 ID = 218028362x
1811.042065 CAN 1 Status:chip status error active
1811.155951 1  CFED94Ax                            Rx   d 8 00 02 00 00 00 00 00 00  Length = 279910 BitCount = 144 ID = 218028362x
1811.655950 1  CFED94Ax                            Rx   d 8 00 02 00 00 00 00 00 00  Length = 279910 BitCount = 144 ID = 218028362x
1812.042065 CAN 1 Status:chip status error active
1812.155949 1  CFED94Ax                            Rx   d 8 00 02 00 00 00 00 00 00  Length = 279910 BitCount = 144 ID = 218028362x
1812.655966 1  CFED94Ax                            Rx   d 8 00 02 00 00 00 00 00 00  Length = 279925 BitCount = 144 ID = 218028362x
1813.042066 CAN 1 Status:chip status error active
1813.155946 1  CFED94Ax                            Rx   d 8 00 02 00 00 00 00 00 00  Length = 279910 BitCount = 144 ID = 218028362x
1813.655943 1  CFED94Ax                            Rx   d 8 00 02 00 00 00 00 00 00  Length = 279925 BitCount = 144 ID = 218028362x
1814.042066 CAN 1 Status:chip status error active
1814.155942 1  CFED94Ax                            Rx   d 8 00 02 00 00 00 00 00 00  Length = 279910 BitCount = 144 ID = 218028362x
1814.450773 1  74C                                 Rx   d 8 02 10 03 AA AA AA AA AA  Length = 221910 BitCount = 115 ID = 1868
1814.460899 1  75C                                 Rx   d 8 06 50 03 00 32 00 C8 AA  Length = 227910 BitCount = 118 ID = 1884
1814.487366 1  74C                                 Rx   d 8 02 27 03 AA AA AA AA AA  Length = 219910 BitCount = 114 ID = 1868
1814.495889 1  75C                                 Rx   d 8 04 67 03 C4 6A AA AA AA  Length = 219910 BitCount = 114 ID = 1884
1814.513597 1  74C                                 Rx   d 8 04 27 04 78 80 AA AA AA  Length = 223910 BitCount = 116 ID = 1868
1814.520889 1  75C                                 Rx   d 8 02 67 04 AA AA AA AA AA  Length = 219910 BitCount = 114 ID = 1884
1814.543260 1  74C                                 Rx   d 8 05 31 01 77 40 01 AA AA  Length = 223910 BitCount = 116 ID = 1868
1814.550897 1  75C                                 Rx   d 8 05 71 01 77 40 01 AA AA  Length = 225910 BitCount = 117 ID = 1884
1814.591876 1  74C                                 Rx   d 8 04 31 03 77 40 AA AA AA  Length = 221910 BitCount = 115 ID = 1868
1814.600894 1  75C                                 Rx   d 8 05 71 03 77 40 03 AA AA  Length = 225910 BitCount = 117 ID = 1884
1814.655942 1  CFED94Ax                            Rx   d 8 00 02 00 00 00 00 00 00  Length = 279910 BitCount = 144 ID = 218028362x
1814.733195 1  74C                                 Rx   d 8 04 31 03 77 40 AA AA AA  Length = 221925 BitCount = 115 ID = 1868
1814.740893 1  75C                                 Rx   d 8 05 71 03 77 40 02 AA AA  Length = 223910 BitCount = 116 ID = 1884
1814.771135 1  74C                                 Rx   d 8 10 0B 34 00 44 00 00 00  Length = 235910 BitCount = 122 ID = 1868
1814.775895 1  75C                                 Rx   d 8 30 00 00 AA AA AA AA AA  Length = 227910 BitCount = 118 ID = 1884
1814.779571 1  74C                                 Rx   d 8 21 00 00 00 2B 3C AA AA  Length = 227910 BitCount = 118 ID = 1868
1814.790893 1  75C                                 Rx   d 8 04 74 20 03 84 AA AA AA  Length = 223925 BitCount = 116 ID = 1884
1814.839131 1  74C                                 Rx   d 8 13 84 36 01 1F 8B 08 00  Length = 225910 BitCount = 117 ID = 1868
1814.840897 1  75C                                 Rx   d 8 30 00 00 AA AA AA AA AA  Length = 227910 BitCount = 118 ID = 1884
1814.854783 1  74C                                 Rx   d 8 21 CC 10 8D 65 00 03 ED  Length = 229925 BitCount = 119 ID = 1868
1814.855017 1  74C                                 Rx   d 8 22 BA 65 50 5C 5D B7 EF  Length = 225925 BitCount = 117 ID = 1868
1814.855253 1  74C                                 Rx   d 8 23 8B 5B 02 24 10 34 10  Length = 227910 BitCount = 118 ID = 1868
1814.855481 1  74C                                 Rx   d 8 24 82 7B 68 A1 9B C6 3D  Length = 219910 BitCount = 114 ID = 1868
1814.855711 1  74C                                 Rx   d 8 25 B8 5B 08 04 82 74 A3  Length = 221910 BitCount = 115 ID = 1868
1814.855947 1  74C                                 Rx   d 8 26 21 48 70 27 C1 2D B8  Length = 227910 BitCount = 118 ID = 1868
1814.856175 1  74C                                 Rx   d 8 27 BB BB 06 77 08 EE EE  Length = 219910 BitCount = 114 ID = 1868
1814.856408 1  74C                                 Rx   d 8 28 0E C1 9D E0 70 F2 BC  Length = 223910 BitCount = 116 ID = 1868
1814.856638 1  74C                                 Rx   d 8 29 F2 EC B7 4E D5 BE F7  Length = 221925 BitCount = 115 ID = 1868
1814.856868 1  74C                                 Rx   d 8 2A D3 BE B7 4E 1D 7E D5  Length = 221910 BitCount = 115 ID = 1868
1814.857096 1  74C                                 Rx   d 8 2B 55 53 D6 1C FF 31 E6  Length = 219910 BitCount = 114 ID = 1868
1814.857328 1  74C                                 Rx   d 8 2C E8 B1 3E AC AA A1 67  Length = 223910 BitCount = 116 ID = 1868
1814.857556 1  74C                                 Rx   d 8 2D 6B 68 F2 F9 CD 17 3D  Length = 219910 BitCount = 114 ID = 1868
1814.857790 1  74C                                 Rx   d 8 2E 6B A4 FF 39 00 7F 80  Length = 225910 BitCount = 117 ID = 1868
1814.858024 1  74C                                 Rx   d 8 2F 42 39 FF 1A 81 5C 10  Length = 225910 BitCount = 117 ID = 1868
1814.858261 1  74C                                 Rx   d 8 20 C8 7F 8E 7F 00 81 B9  Length = 227925 BitCount = 118 ID = 1868
1814.858499 1  74C                                 Rx   d 8 21 B8 80 48 40 4E 08 27  Length = 229925 BitCount = 119 ID = 1868
1814.858731 1  74C                                 Rx   d 8 22 18 04 FC B3 FE 73 0E  Length = 223910 BitCount = 116 ID = 1868
1814.858961 1  74C                                 Rx   d 8 23 08 86 70 42 91 5E 03  Length = 221910 BitCount = 115 ID = 1868
1814.859193 1  74C                                 Rx   d 8 24 FE 07 63 FA 1B 5B 9B  Length = 223910 BitCount = 116 ID = 1868
1814.859425 1  74C                                 Rx   d 8 25 3F 97 7F FD 1A C9 DC  Length = 223910 BitCount = 116 ID = 1868
1814.859653 1  74C                                 Rx   d 8 26 C4 C2 C9 D6 FA B3 85  Length = 219910 BitCount = 114 ID = 1868
1814.859893 1  74C                                 Rx   d 8 27 D1 7F 73 EE FF ED F9  Length = 231925 BitCount = 120 ID = 1868
1814.860124 1  74C                                 Rx   d 8 28 FF A1 50 05 62 21 A1  Length = 221925 BitCount = 115 ID = 1868
1814.860352 1  74C                                 Rx   d 8 29 3D 0B 86 23 A1 EE CF  Length = 219910 BitCount = 114 ID = 1868
1814.860582 1  74C                                 Rx   d 8 2A AA 29 BE 1C 6C 66 B2  Length = 221910 BitCount = 115 ID = 1868
1814.860812 1  74C                                 Rx   d 8 2B CC 8F AC 12 4A AB 84  Length = 221910 BitCount = 115 ID = 1868
1814.861040 1  74C                                 Rx   d 8 2C 55 8A A3 BC 60 AC 51  Length = 219910 BitCount = 114 ID = 1868
1814.861272 1  74C                                 Rx   d 8 2D FB 8E 61 7F 21 64 69  Length = 223910 BitCount = 116 ID = 1868
1814.861504 1  74C                                 Rx   d 8 2E CF 91 05 C3 A6 6F F5  Length = 223910 BitCount = 116 ID = 1868
1814.861738 1  74C                                 Rx   d 8 2F AA 92 C3 41 47 E1 AC  Length = 225925 BitCount = 117 ID = 1868
1814.861968 1  74C                                 Rx   d 8 20 51 49 95 F4 58 D6 99  Length = 221910 BitCount = 115 ID = 1868
1814.862205 1  74C                                 Rx   d 8 21 5F F8 70 78 98 78 6A  Length = 227910 BitCount = 118 ID = 1868
1814.862435 1  74C                                 Rx   d 8 22 79 D8 77 97 92 F3 50  Length = 221910 BitCount = 115 ID = 1868
1814.862667 1  74C                                 Rx   d 8 23 6B 63 74 D9 3F B8 37  Length = 223910 BitCount = 116 ID = 1868
1814.862895 1  74C                                 Rx   d 8 24 D8 BB 67 4F D5 C4 7B  Length = 219910 BitCount = 114 ID = 1868
1814.863125 1  74C                                 Rx   d 8 25 53 1A 12 ED 75 90 1C  Length = 221910 BitCount = 115 ID = 1868
1814.863359 1  74C                                 Rx   d 8 26 32 FF 4A E0 15 DA 03  Length = 225925 BitCount = 117 ID = 1868
1814.863587 1  74C                                 Rx   d 8 27 B4 E1 E1 19 01 CA BD  Length = 219910 BitCount = 114 ID = 1868
1814.863819 1  74C                                 Rx   d 8 28 C4 00 23 1B D3 A5 FB  Length = 223910 BitCount = 116 ID = 1868
1814.864052 1  74C                                 Rx   d 8 29 E4 03 7A B7 44 0B E6  Length = 223910 BitCount = 116 ID = 1868
1814.864282 1  74C                                 Rx   d 8 2A 0B B4 93 13 9C A3 E3  Length = 221910 BitCount = 115 ID = 1868
1814.864508 1  74C                                 Rx   d 8 2B 93 63 C2 A3 13 6C 2C  Length = 217910 BitCount = 113 ID = 1868
1814.864736 1  74C                                 Rx   d 8 2C 6C EC E7 0D CB 77 17  Length = 219910 BitCount = 114 ID = 1868
1814.864966 1  74C                                 Rx   d 8 2D DE 67 CD 8E 75 CE B1  Length = 221925 BitCount = 115 ID = 1868
1814.865196 1  74C                                 Rx   d 8 2E F5 8D 0E C2 CB 1F 77  Length = 221910 BitCount = 115 ID = 1868
1814.865428 1  74C                                 Rx   d 8 2F D7 7F 6D 6F EE 19 DE  Length = 223910 BitCount = 116 ID = 1868
1814.865660 1  74C                                 Rx   d 8 20 B9 C7 5D 2C 05 3F B8  Length = 223910 BitCount = 116 ID = 1868
1814.865891 1  74C                                 Rx   d 8 21 07 0C 51 B0 A1 79 1E  Length = 221910 BitCount = 115 ID = 1868
1814.866127 1  74C                                 Rx   d 8 22 F9 63 F9 9F 24 04 A2  Length = 227910 BitCount = 118 ID = 1868
1814.866355 1  74C                                 Rx   d 8 23 88 5F 7A A6 7B D1 10  Length = 219910 BitCount = 114 ID = 1868
1814.866587 1  74C                                 Rx   d 8 24 7B 35 A0 10 37 B4 11  Length = 223925 BitCount = 116 ID = 1868
1814.866817 1  74C                                 Rx   d 8 25 7F 64 4D ED 6E 7F 98  Length = 221925 BitCount = 115 ID = 1868
1814.867045 1  74C                                 Rx   d 8 26 42 5E BC AC B6 06 5E  Length = 219910 BitCount = 114 ID = 1868
1814.867277 1  74C                                 Rx   d 8 27 20 CD 09 99 53 16 D6  Length = 223910 BitCount = 116 ID = 1868
1814.867509 1  74C                                 Rx   d 8 28 3C 54 9C 7F 9E 59 D3  Length = 223910 BitCount = 116 ID = 1868
1814.867739 1  74C                                 Rx   d 8 29 FD 25 D8 8C A4 78 D9  Length = 221910 BitCount = 115 ID = 1868
1814.867972 1  74C                                 Rx   d 8 2A 7C 92 A2 FB 4E 71 4B  Length = 223910 BitCount = 116 ID = 1868
1814.868206 1  74C                                 Rx   d 8 2B F0 00 45 47 20 B5 14  Length = 225925 BitCount = 117 ID = 1868
1814.868442 1  74C                                 Rx   d 8 2C 69 49 EE FE 41 E1 BB  Length = 227925 BitCount = 118 ID = 1868
1814.868672 1  74C                                 Rx   d 8 2D 5A D8 88 6A F8 C4 2F  Length = 221910 BitCount = 115 ID = 1868
1814.868902 1  74C                                 Rx   d 8 2E C7 1C 66 D4 F0 08 54  Length = 221910 BitCount = 115 ID = 1868
1814.869130 1  74C                                 Rx   d 8 2F 1C B1 EC C5 9B A1 7B  Length = 219910 BitCount = 114 ID = 1868
1814.869360 1  74C                                 Rx   d 8 20 7B 0C 68 BA CB E7 73  Length = 221910 BitCount = 115 ID = 1868
1814.869588 1  74C                                 Rx   d 8 21 4D C8 B9 5E BA EF 04  Length = 219910 BitCount = 114 ID = 1868
1814.869817 1  74C                                 Rx   d 8 22 5A 65 5A EB D4 43 12  Length = 219925 BitCount = 114 ID = 1868
1814.870045 1  74C                                 Rx   d 8 23 59 15 4F 44 28 DA C5  Length = 219925 BitCount = 114 ID = 1868
1814.870275 1  74C                                 Rx   d 8 24 C1 3E 37 2C 5A D9 92  Length = 221910 BitCount = 115 ID = 1868
1814.870511 1  74C                                 Rx   d 8 25 69 9D 80 0C 65 06 EB  Length = 227910 BitCount = 118 ID = 1868
1814.870745 1  74C                                 Rx   d 8 26 D5 42 E0 E4 65 7F F4  Length = 225910 BitCount = 117 ID = 1868
1814.870977 1  74C                                 Rx   d 8 27 DB D3 67 C5 BF C3 84  Length = 223910 BitCount = 116 ID = 1868
1814.871211 1  74C                                 Rx   d 8 28 70 CF 07 C3 36 C8 30  Length = 225910 BitCount = 117 ID = 1868
1814.871443 1  74C                                 Rx   d 8 29 6F 19 C9 24 83 3D 3C  Length = 223925 BitCount = 116 ID = 1868
1814.871672 1  74C                                 Rx   d 8 2A F6 D3 C8 6F 5F DA 88  Length = 219925 BitCount = 114 ID = 1868
1814.871898 1  74C                                 Rx   d 8 2B 44 4E 86 9A 43 BC 78  Length = 217910 BitCount = 113 ID = 1868
1814.872126 1  74C                                 Rx   d 8 2C 73 A7 45 37 65 73 41  Length = 219910 BitCount = 114 ID = 1868
1814.872356 1  74C                                 Rx   d 8 2D 1C 11 EC A2 D0 23 62  Length = 221910 BitCount = 115 ID = 1868
1814.872588 1  74C                                 Rx   d 8 2E A2 DD 05 51 9D AC 17  Length = 223910 BitCount = 116 ID = 1868
1814.872822 1  74C                                 Rx   d 8 2F 5E 39 0A FE 87 EF AB  Length = 225910 BitCount = 117 ID = 1868
1814.873054 1  74C                                 Rx   d 8 20 1E E4 A9 1D BC FA 18  Length = 223925 BitCount = 116 ID = 1868
1814.873286 1  74C                                 Rx   d 8 21 02 AE 1D 02 E3 E3 B9  Length = 223925 BitCount = 116 ID = 1868
1814.873514 1  74C                                 Rx   d 8 22 26 36 B9 22 63 77 A4  Length = 219910 BitCount = 114 ID = 1868
1814.873745 1  74C                                 Rx   d 8 23 38 D4 F2 C9 90 83 B5  Length = 221910 BitCount = 115 ID = 1868
1814.873973 1  74C                                 Rx   d 8 24 71 22 63 84 FC AF 2E  Length = 219910 BitCount = 114 ID = 1868
1814.874201 1  74C                                 Rx   d 8 25 D8 75 BC 72 1E 76 62  Length = 219910 BitCount = 114 ID = 1868
1814.874429 1  74C                                 Rx   d 8 26 D7 11 68 CC 68 62 54  Length = 219910 BitCount = 114 ID = 1868
1814.874663 1  74C                                 Rx   d 8 27 0F 3F 83 E6 52 31 39  Length = 225910 BitCount = 117 ID = 1868
1814.874897 1  74C                                 Rx   d 8 28 22 B1 95 F7 CB D3 29  Length = 225925 BitCount = 117 ID = 1868
1814.875125 1  74C                                 Rx   d 8 29 2B 43 8C 09 BC 9E 55  Length = 219910 BitCount = 114 ID = 1868
1814.875359 1  74C                                 Rx   d 8 2A F5 16 E4 17 E6 BF E7  Length = 225910 BitCount = 117 ID = 1868
1814.875590 1  74C                                 Rx   d 8 2B E5 56 22 30 BF E4 C3  Length = 221910 BitCount = 115 ID = 1868
1814.875822 1  74C                                 Rx   d 8 2C A8 EF 4F 44 73 FF D1  Length = 223910 BitCount = 116 ID = 1868
1814.876050 1  74C                                 Rx   d 8 2D 2A 2A 35 99 F3 D5 99  Length = 219910 BitCount = 114 ID = 1868
1814.876276 1  74C                                 Rx   d 8 2E 3A 30 D3 2E 4E 77 36  Length = 217910 BitCount = 113 ID = 1868
1814.876508 1  74C                                 Rx   d 8 2F EB 87 47 8C 21 5C F6  Length = 223925 BitCount = 116 ID = 1868
1814.876744 1  74C                                 Rx   d 8 20 F3 2D CD F0 D3 B0 18  Length = 227910 BitCount = 118 ID = 1868
1814.876978 1  74C                                 Rx   d 8 21 2A 36 8F 98 BD 02 82  Length = 225910 BitCount = 117 ID = 1868
1814.877210 1  74C                                 Rx   d 8 22 B0 35 BB 20 47 B7 EE  Length = 223910 BitCount = 116 ID = 1868
1814.877437 1  74C                                 Rx   d 8 23 79 90 F2 39 44 B9 B6  Length = 217910 BitCount = 113 ID = 1868
1814.877667 1  74C                                 Rx   d 8 24 E4 29 D3 F2 58 7B B5  Length = 221910 BitCount = 115 ID = 1868
1814.877899 1  74C                                 Rx   d 8 25 D7 EC A1 07 5A 21 33  Length = 223910 BitCount = 116 ID = 1868
1814.878131 1  74C                                 Rx   d 8 26 33 D6 7D A5 86 DB F8  Length = 223925 BitCount = 116 ID = 1868
1814.878361 1  74C                                 Rx   d 8 27 2D 5A 4B E4 22 6F EA  Length = 221910 BitCount = 115 ID = 1868
1814.878587 1  74C                                 Rx   d 8 28 DE 74 6E DC E2 74 64  Length = 217910 BitCount = 113 ID = 1868
1814.878819 1  74C                                 Rx   d 8 29 3D 6A F5 40 F9 C3 6B  Length = 223910 BitCount = 116 ID = 1868
1814.879049 1  74C                                 Rx   d 8 2A 9B C0 4F 18 8B 84 F0  Length = 221910 BitCount = 115 ID = 1868
1814.879282 1  74C                                 Rx   d 8 2B 08 E4 72 AB 94 04 55  Length = 223910 BitCount = 116 ID = 1868
1814.879512 1  74C                                 Rx   d 8 2C 08 FB 4D 93 38 9C B0  Length = 221910 BitCount = 115 ID = 1868
1814.879744 1  74C                                 Rx   d 8 2D 81 8C A2 7A 40 FE 87  Length = 223925 BitCount = 116 ID = 1868
1814.879974 1  74C                                 Rx   d 8 2E F9 90 AA 3A 5C 7C E6  Length = 221925 BitCount = 115 ID = 1868
1814.880202 1  74C                                 Rx   d 8 2F 6C 63 41 45 E8 E2 38  Length = 219910 BitCount = 114 ID = 1868
1814.880432 1  74C                                 Rx   d 8 20 FB BB 2B 75 69 19 B8  Length = 221910 BitCount = 115 ID = 1868
1814.880662 1  74C                                 Rx   d 8 21 79 A8 E1 06 42 C3 F5  Length = 221910 BitCount = 115 ID = 1868
1814.880894 1  74C                                 Rx   d 8 22 2D A5 33 1C DF 81 95  Length = 223910 BitCount = 116 ID = 1868
1814.881128 1  74C                                 Rx   d 8 23 97 7E 02 51 AA F9 06  Length = 225910 BitCount = 117 ID = 1868
1814.881357 1  74C                                 Rx   d 8 24 93 9E E4 55 0A 2F 66  Length = 219925 BitCount = 114 ID = 1868
1814.881591 1  74C                                 Rx   d 8 25 CF C1 80 2C FD 75 2C  Length = 225925 BitCount = 117 ID = 1868
1814.881819 1  74C                                 Rx   d 8 26 20 2B 12 34 DD 71 13  Length = 219910 BitCount = 114 ID = 1868
1814.882047 1  74C                                 Rx   d 8 27 09 91 43 08 91 F1 B7  Length = 219910 BitCount = 114 ID = 1868
1814.882277 1  74C                                 Rx   d 8 28 E4 CF 74 CF 51 1F C9  Length = 221910 BitCount = 115 ID = 1868
1814.882503 1  74C                                 Rx   d 8 29 D3 A8 E5 2D 71 A4 2D  Length = 217910 BitCount = 113 ID = 1868
1814.882733 1  74C                                 Rx   d 8 2A 98 3D 27 BB 0A 91 9C  Length = 221910 BitCount = 115 ID = 1868
1814.882963 1  74C                                 Rx   d 8 2B FC 6E 48 C7 6B DB BB  Length = 221910 BitCount = 115 ID = 1868
1814.883196 1  74C                                 Rx   d 8 2C 06 26 4E 89 FE 76 E7  Length = 223925 BitCount = 116 ID = 1868
1814.883424 1  74C                                 Rx   d 8 2D 3F A6 9D 17 79 5E EE  Length = 219910 BitCount = 114 ID = 1868
1814.883654 1  74C                                 Rx   d 8 2E 8C 41 85 B7 FA D4 ED  Length = 221910 BitCount = 115 ID = 1868
1814.883882 1  74C                                 Rx   d 8 2F 73 16 42 4D 3E 4C AE  Length = 219910 BitCount = 114 ID = 1868
1814.884114 1  74C                                 Rx   d 8 20 75 EF B8 EC 1D AA AA  Length = 223910 BitCount = 116 ID = 1868
1814.935886 1  75C                                 Rx   d 8 02 76 01 AA AA AA AA AA  Length = 219925 BitCount = 114 ID = 1884
1814.950492 1  74C                                 Rx   d 8 13 84 36 02 4D E6 48 94  Length = 219910 BitCount = 114 ID = 1868
1814.950896 1  75C                                 Rx   d 8 30 00 00 AA AA AA AA AA  Length = 227910 BitCount = 118 ID = 1884
1814.961570 1  74C                                 Rx   d 8 21 C2 EF A8 A0 B1 DE 0F  Length = 227910 BitCount = 118 ID = 1868
1814.961800 1  74C                                 Rx   d 8 22 FC 22 24 28 5A A7 A7  Length = 221925 BitCount = 115 ID = 1868
1814.962030 1  74C                                 Rx   d 8 23 98 7A 3F 8A 91 C2 04  Length = 221925 BitCount = 115 ID = 1868
1814.962265 1  74C                                 Rx   d 8 24 F9 67 F8 BF 91 7F 21  Length = 225910 BitCount = 117 ID = 1868
1814.962495 1  74C                                 Rx   d 8 25 E9 74 CD E2 BF 6C 09  Length = 221910 BitCount = 115 ID = 1868
1814.962725 1  74C                                 Rx   d 8 26 AC D6 EB 44 8F D4 BC  Length = 221910 BitCount = 115 ID = 1868
1814.962959 1  74C                                 Rx   d 8 27 9C 6F 2B CC 14 CA C0  Length = 225910 BitCount = 117 ID = 1868
1814.963189 1  74C                                 Rx   d 8 28 21 0B 12 A9 2E 41 0F  Length = 221910 BitCount = 115 ID = 1868
1814.963425 1  74C                                 Rx   d 8 29 AF B8 FA 44 BF C9 3B  Length = 227910 BitCount = 118 ID = 1868
1814.963657 1  74C                                 Rx   d 8 2A BA FB C5 70 37 FA C4  Length = 223925 BitCount = 116 ID = 1868
1814.963887 1  74C                                 Rx   d 8 2B 43 53 0A 27 EC BE B3  Length = 221910 BitCount = 115 ID = 1868
1814.964124 1  74C                                 Rx   d 8 2C 1D E4 5F AF FE 06 4D  Length = 227910 BitCount = 118 ID = 1868
1814.964354 1  74C                                 Rx   d 8 2D 43 60 A8 B2 B4 F0 22  Length = 221910 BitCount = 115 ID = 1868
1814.964590 1  74C                                 Rx   d 8 2E 96 99 F0 35 07 DB 61  Length = 227910 BitCount = 118 ID = 1868
1814.964822 1  74C                                 Rx   d 8 2F 63 F3 82 BC AB 0C 37  Length = 223910 BitCount = 116 ID = 1868
1814.965056 1  74C                                 Rx   d 8 20 7B E0 55 88 71 7E C2  Length = 225910 BitCount = 117 ID = 1868
1814.965284 1  74C                                 Rx   d 8 21 71 27 96 B0 DD 31 C6  Length = 219925 BitCount = 114 ID = 1868
1814.965514 1  74C                                 Rx   d 8 22 C4 C5 EF 8B 48 EF 8B  Length = 221925 BitCount = 115 ID = 1868
1814.965744 1  74C                                 Rx   d 8 23 03 B3 8D 97 61 15 F1  Length = 221910 BitCount = 115 ID = 1868
1814.965976 1  74C                                 Rx   d 8 24 82 A0 9D 49 0B E5 6B  Length = 223910 BitCount = 116 ID = 1868
1814.966203 1  74C                                 Rx   d 8 25 63 84 E3 0D 71 9E B2  Length = 217910 BitCount = 113 ID = 1868
1814.966433 1  74C                                 Rx   d 8 26 C6 94 0C EB 0E E6 FE  Length = 221910 BitCount = 115 ID = 1868
1814.966663 1  74C                                 Rx   d 8 27 26 9A DA 87 CF 6B 53  Length = 221910 BitCount = 115 ID = 1868
1814.966893 1  74C                                 Rx   d 8 28 DF E9 36 3B 64 A9 B6  Length = 221925 BitCount = 115 ID = 1868
1814.967127 1  74C                                 Rx   d 8 29 0F BE 17 64 BB BD 77  Length = 225925 BitCount = 117 ID = 1868
1814.967357 1  74C                                 Rx   d 8 2A 5A F7 74 9E D6 08 C5  Length = 221910 BitCount = 115 ID = 1868
1814.967591 1  74C                                 Rx   d 8 2B 41 2D F2 83 47 34 3B  Length = 225910 BitCount = 117 ID = 1868
1814.967823 1  74C                                 Rx   d 8 2C 1E B1 BA D2 B2 C9 62  Length = 223910 BitCount = 116 ID = 1868
1814.968058 1  74C                                 Rx   d 8 2D 93 DD 5C 24 0B AE 07  Length = 225910 BitCount = 117 ID = 1868
1814.968286 1  74C                                 Rx   d 8 2E 1D 11 99 F1 85 21 1D  Length = 219910 BitCount = 114 ID = 1868
1814.968514 1  74C                                 Rx   d 8 2F FB 9C 24 B9 69 0E 68  Length = 219925 BitCount = 114 ID = 1868
1814.968748 1  74C                                 Rx   d 8 20 81 96 AD E2 E9 48 18  Length = 225925 BitCount = 117 ID = 1868
1814.968976 1  74C                                 Rx   d 8 21 85 D4 70 A4 0C D3 72  Length = 219910 BitCount = 114 ID = 1868
1814.969206 1  74C                                 Rx   d 8 22 BE C7 9B 95 30 E1 C5  Length = 221910 BitCount = 115 ID = 1868
1814.969434 1  74C                                 Rx   d 8 23 D5 09 17 78 3A 11 D1  Length = 219910 BitCount = 114 ID = 1868
1814.969662 1  74C                                 Rx   d 8 24 1D 85 57 BD B8 7A 71  Length = 219910 BitCount = 114 ID = 1868
1814.969895 1  74C                                 Rx   d 8 25 B5 C5 A8 96 A0 1F D1  Length = 223910 BitCount = 116 ID = 1868
1814.970123 1  74C                                 Rx   d 8 26 11 38 EA 27 B9 C9 DF  Length = 219910 BitCount = 114 ID = 1868
1814.970353 1  74C                                 Rx   d 8 27 84 EB 16 23 EF 2C 70  Length = 221925 BitCount = 115 ID = 1868
1814.970587 1  74C                                 Rx   d 8 28 50 4A 99 DF DE 00 F0  Length = 225910 BitCount = 117 ID = 1868
1814.970815 1  74C                                 Rx   d 8 29 A4 25 4B 61 32 F1 FE  Length = 219910 BitCount = 114 ID = 1868
1814.971043 1  74C                                 Rx   d 8 2A 66 F0 23 A9 9A 36 25  Length = 219910 BitCount = 114 ID = 1868
1814.971269 1  74C                                 Rx   d 8 2B 52 55 73 1E 76 8E D9  Length = 217910 BitCount = 113 ID = 1868
1814.971501 1  74C                                 Rx   d 8 2C DD E8 56 4F A7 CE E0  Length = 223910 BitCount = 116 ID = 1868
1814.971738 1  74C                                 Rx   d 8 2D F5 34 16 FF E4 3D 51  Length = 227910 BitCount = 118 ID = 1868
1814.971968 1  74C                                 Rx   d 8 2E CA BB 4D 74 79 84 A0  Length = 221925 BitCount = 115 ID = 1868
1814.972200 1  74C                                 Rx   d 8 2F D4 F4 3B 29 3A 12 FA  Length = 223910 BitCount = 116 ID = 1868
1814.972428 1  74C                                 Rx   d 8 20 6A BD D4 51 42 9B 6D  Length = 219910 BitCount = 114 ID = 1868
1814.972662 1  74C                                 Rx   d 8 21 83 32 CC 41 C1 1E C6  Length = 225910 BitCount = 117 ID = 1868
1814.972894 1  74C                                 Rx   d 8 22 EA 39 7D F0 9D DE BD  Length = 223910 BitCount = 116 ID = 1868
1814.973126 1  74C                                 Rx   d 8 23 F1 1A BB EF B4 2F 2C  Length = 223910 BitCount = 116 ID = 1868
1814.973356 1  74C                                 Rx   d 8 24 4A A0 C8 79 49 0E 25  Length = 221910 BitCount = 115 ID = 1868
1814.973584 1  74C                                 Rx   d 8 25 2D CA 42 86 1F 75 76  Length = 219925 BitCount = 114 ID = 1868
1814.973813 1  74C                                 Rx   d 8 26 F0 C6 97 B8 AE 38 AE  Length = 219910 BitCount = 114 ID = 1868
1814.974043 1  74C                                 Rx   d 8 27 7A DD DF D1 4B 8B E4  Length = 221910 BitCount = 115 ID = 1868
1814.974277 1  74C                                 Rx   d 8 28 1D 60 C0 E6 4D CA E9  Length = 225910 BitCount = 117 ID = 1868
1814.974509 1  74C                                 Rx   d 8 29 E9 88 19 44 7C E7 E4  Length = 223910 BitCount = 116 ID = 1868
1814.974737 1  74C                                 Rx   d 8 2A 24 45 D3 C9 CB D5 12  Length = 219910 BitCount = 114 ID = 1868
1814.974971 1  74C                                 Rx   d 8 2B DF E9 C6 9F F9 A1 66  Length = 225910 BitCount = 117 ID = 1868
1814.975201 1  74C                                 Rx   d 8 2C 31 78 A5 92 88 A4 E9  Length = 221925 BitCount = 115 ID = 1868
1814.975431 1  74C                                 Rx   d 8 2D 84 28 23 F7 09 DB 0D  Length = 221925 BitCount = 115 ID = 1868
1814.975662 1  74C                                 Rx   d 8 2E 37 6E 8D 4A 86 83 A4  Length = 221910 BitCount = 115 ID = 1868
1814.975890 1  74C                                 Rx   d 8 2F 42 F1 C6 A0 C5 25 D6  Length = 219910 BitCount = 114 ID = 1868
1814.976122 1  74C                                 Rx   d 8 20 0D 0D 50 49 3F 6A 3A  Length = 223910 BitCount = 116 ID = 1868
1814.976352 1  74C                                 Rx   d 8 21 AD 4E 9F 45 87 02 6B  Length = 221910 BitCount = 115 ID = 1868
1814.976580 1  74C                                 Rx   d 8 22 76 9E AE AD A7 94 CF  Length = 219910 BitCount = 114 ID = 1868
1814.976808 1  74C                                 Rx   d 8 23 AE 9D CA A4 69 E7 F6  Length = 219925 BitCount = 114 ID = 1868
1814.977046 1  74C                                 Rx   d 8 24 C4 F2 57 C3 BE B0 27  Length = 229925 BitCount = 119 ID = 1868
1814.977278 1  74C                                 Rx   d 8 25 4A 18 3B 6F 53 43 FB  Length = 223910 BitCount = 116 ID = 1868
1814.977509 1  74C                                 Rx   d 8 26 71 D4 B8 B4 F9 34 2F  Length = 221910 BitCount = 115 ID = 1868
1814.977737 1  74C                                 Rx   d 8 27 E1 39 97 36 D5 5A 7B  Length = 219910 BitCount = 114 ID = 1868
1814.977975 1  74C                                 Rx   d 8 28 4F 88 00 6D 82 60 0C  Length = 229910 BitCount = 119 ID = 1868
1814.978207 1  74C                                 Rx   d 8 29 7F 82 4A 84 F8 E1 70  Length = 223910 BitCount = 116 ID = 1868
1814.978437 1  74C                                 Rx   d 8 2A 82 4B 29 AA C8 0B CC  Length = 221925 BitCount = 115 ID = 1868
1814.978665 1  74C                                 Rx   d 8 2B 35 77 14 51 84 DF D3  Length = 219925 BitCount = 114 ID = 1868
1814.978893 1  74C                                 Rx   d 8 2C E4 36 77 37 42 87 88  Length = 219910 BitCount = 114 ID = 1868
1814.979125 1  74C                                 Rx   d 8 2D D2 8B 91 1D FC 7C DD  Length = 223910 BitCount = 116 ID = 1868
1814.979355 1  74C                                 Rx   d 8 2E 40 C9 BE DA 25 75 DA  Length = 221910 BitCount = 115 ID = 1868
1814.979584 1  74C                                 Rx   d 8 2F 34 3E D1 8D 53 09 90  Length = 219910 BitCount = 114 ID = 1868
1814.979820 1  74C                                 Rx   d 8 20 8E 62 4F A2 FA 67 22  Length = 227910 BitCount = 118 ID = 1868
1814.980048 1  74C                                 Rx   d 8 21 67 67 F7 58 8B 79 55  Length = 219910 BitCount = 114 ID = 1868
1814.980278 1  74C                                 Rx   d 8 22 CB 7C AB B9 D6 3D 8F  Length = 221925 BitCount = 115 ID = 1868
1814.980514 1  74C                                 Rx   d 8 23 3B E1 C8 00 91 9B 17  Length = 227910 BitCount = 118 ID = 1868
1814.980744 1  74C                                 Rx   d 8 24 1F D4 A3 5E 4D EF 33  Length = 221910 BitCount = 115 ID = 1868
1814.980974 1  74C                                 Rx   d 8 25 2E DF B9 84 5E FB BD  Length = 221910 BitCount = 115 ID = 1868
1814.981204 1  74C                                 Rx   d 8 26 13 A6 61 2C CB 8E AC  Length = 221910 BitCount = 115 ID = 1868
1814.981431 1  74C                                 Rx   d 8 27 6C 77 4A 2D 76 59 CD  Length = 217910 BitCount = 113 ID = 1868
1814.981663 1  74C                                 Rx   d 8 28 86 1F F7 A6 DF F4 05  Length = 223925 BitCount = 116 ID = 1868
1814.981893 1  74C                                 Rx   d 8 29 4F DB 7A BA 5F C6 EF  Length = 221925 BitCount = 115 ID = 1868
1814.982123 1  74C                                 Rx   d 8 2A D4 4E 2B 36 AF EE 15  Length = 221910 BitCount = 115 ID = 1868
1814.982361 1  74C                                 Rx   d 8 2B 9F D3 9A 00 7E 86 71  Length = 229910 BitCount = 119 ID = 1868
1814.982587 1  74C                                 Rx   d 8 2C 38 93 21 26 A7 69 75  Length = 217910 BitCount = 113 ID = 1868
1814.982821 1  74C                                 Rx   d 8 2D F5 F8 19 F8 4C 55 DD  Length = 225910 BitCount = 117 ID = 1868
1814.983049 1  74C                                 Rx   d 8 2E B9 B9 2C 93 31 CD 8B  Length = 219910 BitCount = 114 ID = 1868
1814.983284 1  74C                                 Rx   d 8 2F B4 A2 72 C0 DF EB 30  Length = 225910 BitCount = 117 ID = 1868
1814.983518 1  74C                                 Rx   d 8 20 12 52 B0 D0 49 F4 7A  Length = 225925 BitCount = 117 ID = 1868
1814.983750 1  74C                                 Rx   d 8 21 AD E9 81 15 24 1D BF  Length = 223910 BitCount = 116 ID = 1868
1814.983986 1  74C                                 Rx   d 8 22 1D 20 BA 20 1A FC 4A  Length = 227910 BitCount = 118 ID = 1868
1814.984212 1  74C                                 Rx   d 8 23 13 31 B0 A3 1C 2E F3  Length = 217910 BitCount = 113 ID = 1868
1814.984442 1  74C                                 Rx   d 8 24 C4 72 55 AF FA B4 79  Length = 221910 BitCount = 115 ID = 1868
1814.984672 1  74C                                 Rx   d 8 25 D7 A2 55 B7 57 50 58  Length = 221910 BitCount = 115 ID = 1868
1814.984902 1  74C                                 Rx   d 8 26 BD 6C 9D 4D E3 DE 20  Length = 221910 BitCount = 115 ID = 1868
1814.985133 1  74C                                 Rx   d 8 27 3C EC DA F8 D7 DA 8C  Length = 221925 BitCount = 115 ID = 1868
1814.985365 1  74C                                 Rx   d 8 28 EE EE 81 CA E0 2A 5D  Length = 223910 BitCount = 116 ID = 1868
1814.985595 1  74C                                 Rx   d 8 29 05 C9 99 96 32 43 01  Length = 221910 BitCount = 115 ID = 1868
1814.985821 1  74C                                 Rx   d 8 2A 31 5E 8E 5A 46 22 77  Length = 217910 BitCount = 113 ID = 1868
1814.986051 1  74C                                 Rx   d 8 2B B9 BF 9C 3B 57 E3 5C  Length = 221910 BitCount = 115 ID = 1868
1814.986279 1  74C                                 Rx   d 8 2C 7F AD C5 5D CD 2C 2E  Length = 219910 BitCount = 114 ID = 1868
1814.986513 1  74C                                 Rx   d 8 2D E1 86 4E 02 06 E3 30  Length = 225910 BitCount = 117 ID = 1868
1814.986747 1  74C                                 Rx   d 8 2E 7F 94 43 D3 B3 E7 B4  Length = 225925 BitCount = 117 ID = 1868
1814.986979 1  74C                                 Rx   d 8 2F DC 8E 88 B3 1C 86 77  Length = 223910 BitCount = 116 ID = 1868
1814.987216 1  74C                                 Rx   d 8 20 C6 42 1C 91 FC 70 E1  Length = 227910 BitCount = 118 ID = 1868
1814.987446 1  74C                                 Rx   d 8 21 DC F9 62 1C EB 11 F6  Length = 221910 BitCount = 115 ID = 1868
1814.987674 1  74C                                 Rx   d 8 22 21 80 D5 0E 85 89 3B  Length = 219910 BitCount = 114 ID = 1868
1814.987902 1  74C                                 Rx   d 8 23 F7 4E 8B 87 32 A2 97  Length = 219910 BitCount = 114 ID = 1868
1814.988136 1  74C                                 Rx   d 8 24 88 3D ED 65 88 54 B6  Length = 225910 BitCount = 117 ID = 1868
1814.988366 1  74C                                 Rx   d 8 25 22 F9 9D 9D 59 44 DC  Length = 221925 BitCount = 115 ID = 1868
1814.988598 1  74C                                 Rx   d 8 26 87 54 FF 70 4D F6 B6  Length = 223925 BitCount = 116 ID = 1868
1814.988830 1  74C                                 Rx   d 8 27 CB ED 4D 0D 05 29 57  Length = 223910 BitCount = 116 ID = 1868
1814.989061 1  74C                                 Rx   d 8 28 13 2E 0C D2 DD 0E A9  Length = 221910 BitCount = 115 ID = 1868
1814.989289 1  74C                                 Rx   d 8 29 58 C7 55 D6 41 A7 84  Length = 219910 BitCount = 114 ID = 1868
1814.989521 1  74C                                 Rx   d 8 2A FD 20 2B C8 77 92 41  Length = 223910 BitCount = 116 ID = 1868
1814.989755 1  74C                                 Rx   d 8 2B 7F FC 89 EF A2 BF C8  Length = 225910 BitCount = 117 ID = 1868
1814.989981 1  74C                                 Rx   d 8 2C AC 85 A8 5A 4E 8C D6  Length = 217925 BitCount = 113 ID = 1868
1814.990209 1  74C                                 Rx   d 8 2D 26 E3 98 99 04 EA 9D  Length = 219925 BitCount = 114 ID = 1868
1814.990439 1  74C                                 Rx   d 8 2E A2 3E CD E1 A5 DB CC  Length = 221910 BitCount = 115 ID = 1868
1814.990671 1  74C                                 Rx   d 8 2F EE F2 DD B0 13 90 6B  Length = 223910 BitCount = 116 ID = 1868
1814.990902 1  74C                                 Rx   d 8 20 B9 21 5F 67 71 AA AA  Length = 221910 BitCount = 115 ID = 1868
1815.035888 1  75C                                 Rx   d 8 02 76 02 AA AA AA AA AA  Length = 219910 BitCount = 114 ID = 1884
1815.042066 CAN 1 Status:chip status error active
1815.056965 1  74C                                 Rx   d 8 13 84 36 03 E6 D4 9E E6  Length = 225910 BitCount = 117 ID = 1868
1815.060896 1  75C                                 Rx   d 8 30 00 00 AA AA AA AA AA  Length = 227925 BitCount = 118 ID = 1884
1815.066980 1  74C                                 Rx   d 8 21 38 19 11 2A C0 C3 C2  Length = 221925 BitCount = 115 ID = 1868
1815.067208 1  74C                                 Rx   d 8 22 08 6E 33 A3 32 66 43  Length = 219925 BitCount = 114 ID = 1868
1815.067434 1  74C                                 Rx   d 8 23 19 C6 87 14 33 3B 69  Length = 217925 BitCount = 113 ID = 1868
1815.067664 1  74C                                 Rx   d 8 24 04 27 37 14 7C DA 5C  Length = 221910 BitCount = 115 ID = 1868
1815.067892 1  74C                                 Rx   d 8 25 2B 45 62 14 6B DE FB  Length = 219910 BitCount = 114 ID = 1868
1815.068118 1  74C                                 Rx   d 8 26 29 79 6C DE 1D A8 7B  Length = 217910 BitCount = 113 ID = 1868
1815.068344 1  74C                                 Rx   d 8 27 76 F6 9E C7 29 35 BA  Length = 217910 BitCount = 113 ID = 1868
1815.068572 1  74C                                 Rx   d 8 28 EE 59 5D 2E E9 D5 07  Length = 219910 BitCount = 114 ID = 1868
1815.068807 1  74C                                 Rx   d 8 29 E1 06 86 8F FD 7E 92  Length = 225910 BitCount = 117 ID = 1868
1815.069041 1  74C                                 Rx   d 8 2A F7 D4 4F 02 4A 5B DB  Length = 225925 BitCount = 117 ID = 1868
1815.069267 1  74C                                 Rx   d 8 2B 55 61 5C 75 8A 2C 45  Length = 217910 BitCount = 113 ID = 1868
1815.069503 1  74C                                 Rx   d 8 2C 1C BD F4 E4 7E 81 27  Length = 227910 BitCount = 118 ID = 1868
1815.069733 1  74C                                 Rx   d 8 2D 29 7E 6E 2B 91 E2 40  Length = 221910 BitCount = 115 ID = 1868
1815.069965 1  74C                                 Rx   d 8 2E EE 1C 1F A1 FD 09 2D  Length = 223910 BitCount = 116 ID = 1868
1815.070199 1  74C                                 Rx   d 8 2F 19 7F 41 34 DF 77 A7  Length = 225910 BitCount = 117 ID = 1868
1815.070433 1  74C                                 Rx   d 8 20 7B 24 46 20 47 FB 2E  Length = 225910 BitCount = 117 ID = 1868
1815.070666 1  74C                                 Rx   d 8 21 BE F5 59 F5 9E E7 71  Length = 223925 BitCount = 116 ID = 1868
1815.070894 1  74C                                 Rx   d 8 22 F1 5A 86 68 2A DE 74  Length = 219910 BitCount = 114 ID = 1868
1815.071122 1  74C                                 Rx   d 8 23 4C DE 5B 7D A5 CB B4  Length = 219910 BitCount = 114 ID = 1868
1815.071354 1  74C                                 Rx   d 8 24 E0 62 A8 41 72 FE B2  Length = 223910 BitCount = 116 ID = 1868
1815.071582 1  74C                                 Rx   d 8 25 D4 77 15 25 55 FB DD  Length = 219910 BitCount = 114 ID = 1868
1815.071810 1  74C                                 Rx   d 8 26 62 7B EB 44 A2 C3 DD  Length = 219910 BitCount = 114 ID = 1868
1815.072042 1  74C                                 Rx   d 8 27 60 28 DF D3 1A C1 25  Length = 223910 BitCount = 116 ID = 1868
1815.072274 1  74C                                 Rx   d 8 28 FC 82 C4 E4 29 4F F2  Length = 223925 BitCount = 116 ID = 1868
1815.072504 1  74C                                 Rx   d 8 29 4A 23 2F 79 A0 C2 BE  Length = 221910 BitCount = 115 ID = 1868
1815.072741 1  74C                                 Rx   d 8 2A 83 FF C5 0E EA 40 DE  Length = 227910 BitCount = 118 ID = 1868
1815.072973 1  74C                                 Rx   d 8 2B FA 67 C7 8D 75 EE 0A  Length = 223910 BitCount = 116 ID = 1868
1815.073205 1  74C                                 Rx   d 8 2C 3B 86 A4 2B 81 C0 19  Length = 223910 BitCount = 116 ID = 1868
1815.073439 1  74C                                 Rx   d 8 2D FC 54 C4 93 F6 E9 17  Length = 225910 BitCount = 117 ID = 1868
1815.073665 1  74C                                 Rx   d 8 2E B6 29 91 5D 96 CC E5  Length = 217910 BitCount = 113 ID = 1868
1815.073895 1  74C                                 Rx   d 8 2F BC A7 98 31 96 50 D1  Length = 221925 BitCount = 115 ID = 1868
1815.074131 1  74C                                 Rx   d 8 20 33 10 49 6D F4 C1 0F  Length = 227925 BitCount = 118 ID = 1868
1815.074363 1  74C                                 Rx   d 8 21 B4 97 22 04 55 24 7D  Length = 223910 BitCount = 116 ID = 1868
1815.074598 1  74C                                 Rx   d 8 22 24 92 25 9F 37 24 07  Length = 225910 BitCount = 117 ID = 1868
1815.074832 1  74C                                 Rx   d 8 23 32 66 BE A6 D1 E9 F6  Length = 225910 BitCount = 117 ID = 1868
1815.075060 1  74C                                 Rx   d 8 24 E1 3B 7A D9 24 4D D7  Length = 219910 BitCount = 114 ID = 1868
1815.075290 1  74C                                 Rx   d 8 25 48 BA BF 89 48 88 30  Length = 221910 BitCount = 115 ID = 1868
1815.075522 1  74C                                 Rx   d 8 26 93 A1 C8 3C 57 40 35  Length = 223925 BitCount = 116 ID = 1868
1815.075756 1  74C                                 Rx   d 8 27 D4 14 66 F3 EA 4A A3  Length = 225925 BitCount = 117 ID = 1868
1815.075986 1  74C                                 Rx   d 8 28 DC 31 6F D4 41 CA AF  Length = 221910 BitCount = 115 ID = 1868
1815.076216 1  74C                                 Rx   d 8 29 22 E0 12 D4 FA CD 73  Length = 221910 BitCount = 115 ID = 1868
1815.076445 1  74C                                 Rx   d 8 2A 32 DA 5C 09 13 27 4D  Length = 219910 BitCount = 114 ID = 1868
1815.076673 1  74C                                 Rx   d 8 2B 27 53 F5 B5 48 5E 67  Length = 219910 BitCount = 114 ID = 1868
1815.076901 1  74C                                 Rx   d 8 2C A4 D3 D7 CC 55 45 9D  Length = 219910 BitCount = 114 ID = 1868
1815.077131 1  74C                                 Rx   d 8 2D 18 6E 1C 07 66 8F 3B  Length = 221925 BitCount = 115 ID = 1868
1815.077365 1  74C                                 Rx   d 8 2E 72 7B 07 8E A7 1A A7  Length = 225925 BitCount = 117 ID = 1868
1815.077593 1  74C                                 Rx   d 8 2F 1D F5 5A B1 4B 63 52  Length = 219910 BitCount = 114 ID = 1868
1815.077823 1  74C                                 Rx   d 8 20 7A CC AD E1 B1 80 F6  Length = 221910 BitCount = 115 ID = 1868
1815.078055 1  74C                                 Rx   d 8 21 A0 55 0D 93 4E 41 88  Length = 223910 BitCount = 116 ID = 1868
1815.078282 1  74C                                 Rx   d 8 22 BD D0 A7 A2 D6 5A 2A  Length = 217910 BitCount = 113 ID = 1868
1815.078512 1  74C                                 Rx   d 8 23 66 AD 6A 01 DC 01 49  Length = 221910 BitCount = 115 ID = 1868
1815.078746 1  74C                                 Rx   d 8 24 01 B0 20 2F 50 1C 55  Length = 225910 BitCount = 117 ID = 1868
1815.078980 1  74C                                 Rx   d 8 25 96 58 09 65 7D 01 E3  Length = 225925 BitCount = 117 ID = 1868
1815.079212 1  74C                                 Rx   d 8 26 A0 B6 54 D8 30 E9 71  Length = 223910 BitCount = 116 ID = 1868
1815.079444 1  74C                                 Rx   d 8 27 3B 7F BF AD 6F F0 C9  Length = 223910 BitCount = 116 ID = 1868
1815.079678 1  74C                                 Rx   d 8 28 60 B2 8A 5E 3F 6F 07  Length = 225910 BitCount = 117 ID = 1868
1815.079908 1  74C                                 Rx   d 8 29 CB 16 D3 05 E8 16 CB  Length = 221910 BitCount = 115 ID = 1868
1815.080134 1  74C                                 Rx   d 8 2A 8A 5A DD 4E D1 33 79  Length = 217910 BitCount = 113 ID = 1868
1815.080365 1  74C                                 Rx   d 8 2B F2 88 4D DD 95 AB 20  Length = 221910 BitCount = 115 ID = 1868
1815.080601 1  74C                                 Rx   d 8 2C F8 D9 9B C1 17 F3 EE  Length = 227925 BitCount = 118 ID = 1868
1815.080831 1  74C                                 Rx   d 8 2D 28 AD 6C D7 98 F8 64  Length = 221910 BitCount = 115 ID = 1868
1815.081061 1  74C                                 Rx   d 8 2E 23 73 6A EA 6F 98 C9  Length = 221910 BitCount = 115 ID = 1868
1815.081299 1  74C                                 Rx   d 8 2F B8 82 8A 3F FC 10 9F  Length = 229910 BitCount = 119 ID = 1868
1815.081531 1  74C                                 Rx   d 8 20 F5 98 98 A7 90 06 C7  Length = 223910 BitCount = 116 ID = 1868
1815.081763 1  74C                                 Rx   d 8 21 3E 43 DE BE BF 21 AB  Length = 223910 BitCount = 116 ID = 1868
1815.081995 1  74C                                 Rx   d 8 22 B0 3A EA 95 FA 6E 5F  Length = 223910 BitCount = 116 ID = 1868
1815.082228 1  74C                                 Rx   d 8 23 4D F4 A3 49 F2 B5 84  Length = 223925 BitCount = 116 ID = 1868
1815.082454 1  74C                                 Rx   d 8 24 5A 29 6E AD C6 1B A3  Length = 217910 BitCount = 113 ID = 1868
1815.082686 1  74C                                 Rx   d 8 25 66 33 FB D8 46 03 DC  Length = 223910 BitCount = 116 ID = 1868
1815.082918 1  74C                                 Rx   d 8 26 BB 7C 83 6E 16 54 97  Length = 223910 BitCount = 116 ID = 1868
1815.083148 1  74C                                 Rx   d 8 27 93 93 EE 68 AD 6D 13  Length = 221910 BitCount = 115 ID = 1868
1815.083378 1  74C                                 Rx   d 8 28 BB 38 5B F5 EA 80 32  Length = 221910 BitCount = 115 ID = 1868
1815.083610 1  74C                                 Rx   d 8 29 97 4A CB 27 DA CF F3  Length = 223910 BitCount = 116 ID = 1868
1815.083840 1  74C                                 Rx   d 8 2A F4 54 74 0E C4 A7 9B  Length = 221925 BitCount = 115 ID = 1868
1815.084073 1  74C                                 Rx   d 8 2B 8A 02 FD 34 AB 6D 08  Length = 223910 BitCount = 116 ID = 1868
1815.084303 1  74C                                 Rx   d 8 2C 28 16 AE 5D 7B 4A FA  Length = 221910 BitCount = 115 ID = 1868
1815.084533 1  74C                                 Rx   d 8 2D 5C 84 E5 C2 3E 72 A3  Length = 221910 BitCount = 115 ID = 1868
1815.084761 1  74C                                 Rx   d 8 2E DA A7 82 CF 36 56 D6  Length = 219910 BitCount = 114 ID = 1868
1815.084993 1  74C                                 Rx   d 8 2F B5 D0 CA 6D 6E 36 50  Length = 223910 BitCount = 116 ID = 1868
1815.085227 1  74C                                 Rx   d 8 20 F6 45 AF DC 9F F5 D1  Length = 225910 BitCount = 117 ID = 1868
1815.085459 1  74C                                 Rx   d 8 21 19 2A A6 7C 81 30 8B  Length = 223925 BitCount = 116 ID = 1868
1815.085689 1  74C                                 Rx   d 8 22 AF 08 B3 24 58 8E B9  Length = 221910 BitCount = 115 ID = 1868
1815.085923 1  74C                                 Rx   d 8 23 D9 BA ED 16 E2 7D C1  Length = 225910 BitCount = 117 ID = 1868
1815.086152 1  74C                                 Rx   d 8 24 1D CC AD DC 8A 2D 17  Length = 219910 BitCount = 114 ID = 1868
1815.086382 1  74C                                 Rx   d 8 25 67 D0 F4 65 43 0F 63  Length = 221910 BitCount = 115 ID = 1868
1815.086610 1  74C                                 Rx   d 8 26 52 7B 7B D5 92 BD 8C  Length = 219910 BitCount = 114 ID = 1868
1815.086840 1  74C                                 Rx   d 8 27 E3 70 DB 51 5B 32 BC  Length = 221910 BitCount = 115 ID = 1868
1815.087066 1  74C                                 Rx   d 8 28 8E 59 AE C2 B5 24 79  Length = 217925 BitCount = 113 ID = 1868
1815.087292 1  74C                                 Rx   d 8 29 46 F7 A6 D6 25 8E 57  Length = 217925 BitCount = 113 ID = 1868
1815.087524 1  74C                                 Rx   d 8 2A 32 7D AC 06 E9 E3 D0  Length = 223910 BitCount = 116 ID = 1868
1815.087756 1  74C                                 Rx   d 8 2B 12 39 A9 5E B7 F6 FA  Length = 223910 BitCount = 116 ID = 1868
1815.087987 1  74C                                 Rx   d 8 2C 73 39 4F C2 B2 7E 87  Length = 221910 BitCount = 115 ID = 1868
1815.088217 1  74C                                 Rx   d 8 2D C4 C1 8F F8 EF 4E 29  Length = 221910 BitCount = 115 ID = 1868
1815.088445 1  74C                                 Rx   d 8 2E AD 8E BC B5 4F ED 73  Length = 219910 BitCount = 114 ID = 1868
1815.088677 1  74C                                 Rx   d 8 2F A7 BF AC B5 2D 33 DF  Length = 223925 BitCount = 116 ID = 1868
1815.088909 1  74C                                 Rx   d 8 20 8D A2 2E 09 BB 0F CB  Length = 223925 BitCount = 116 ID = 1868
1815.089139 1  74C                                 Rx   d 8 21 C5 EA D2 59 4B EF F9  Length = 221910 BitCount = 115 ID = 1868
1815.089375 1  74C                                 Rx   d 8 22 EA BF 96 EF F2 FF DE  Length = 227910 BitCount = 118 ID = 1868
1815.089603 1  74C                                 Rx   d 8 23 AA B7 B2 4A 29 D7 E4  Length = 219910 BitCount = 114 ID = 1868
1815.089834 1  74C                                 Rx   d 8 24 E6 4E A3 93 D3 DA 44  Length = 221910 BitCount = 115 ID = 1868
1815.090062 1  74C                                 Rx   d 8 25 C3 13 B5 C0 3A 94 C8  Length = 219910 BitCount = 114 ID = 1868
1815.090290 1  74C                                 Rx   d 8 26 D3 82 62 D4 CC 9D 85  Length = 219910 BitCount = 114 ID = 1868
1815.090518 1  74C                                 Rx   d 8 27 A4 36 B2 85 1E 23 3B  Length = 219925 BitCount = 114 ID = 1868
1815.090750 1  74C                                 Rx   d 8 28 FB 56 C4 A4 EB 36 5C  Length = 223910 BitCount = 116 ID = 1868
1815.090982 1  74C                                 Rx   d 8 29 21 3F C9 EE 94 83 01  Length = 223910 BitCount = 116 ID = 1868
1815.091216 1  74C                                 Rx   d 8 2A E2 D0 BF 3F BF 64 1A  Length = 225910 BitCount = 117 ID = 1868
1815.091448 1  74C                                 Rx   d 8 2B BC 85 30 2F 54 9E 3C  Length = 223910 BitCount = 116 ID = 1868
1815.091679 1  74C                                 Rx   d 8 2C 2C FF E2 AC 23 D1 8B  Length = 221910 BitCount = 115 ID = 1868
1815.091905 1  74C                                 Rx   d 8 2D 55 DA BB 88 A4 56 D5  Length = 217910 BitCount = 113 ID = 1868
1815.092135 1  74C                                 Rx   d 8 2E 46 BD 63 52 9E 39 FD  Length = 221925 BitCount = 115 ID = 1868
1815.092371 1  74C                                 Rx   d 8 2F 9D 49 FA 7B 48 01 68  Length = 227910 BitCount = 118 ID = 1868
1815.092601 1  74C                                 Rx   d 8 20 A1 3D A1 A4 37 B7 8C  Length = 221910 BitCount = 115 ID = 1868
1815.092833 1  74C                                 Rx   d 8 21 36 2A 8F F6 48 D5 EF  Length = 223910 BitCount = 116 ID = 1868
1815.093059 1  74C                                 Rx   d 8 22 C3 D9 B8 A2 4B 49 79  Length = 217910 BitCount = 113 ID = 1868
1815.093291 1  74C                                 Rx   d 8 23 89 22 85 57 2D 83 BE  Length = 223910 BitCount = 116 ID = 1868
1815.093525 1  74C                                 Rx   d 8 24 2E 48 E9 40 43 E0 87  Length = 225910 BitCount = 117 ID = 1868
1815.093756 1  74C                                 Rx   d 8 25 5D 78 5B 68 0D B7 88  Length = 221925 BitCount = 115 ID = 1868
1815.093988 1  74C                                 Rx   d 8 26 FA 3C 52 FC 53 C0 D7  Length = 223910 BitCount = 116 ID = 1868
1815.094216 1  74C                                 Rx   d 8 27 BA B2 DB A9 3B 22 0C  Length = 219910 BitCount = 114 ID = 1868
1815.094446 1  74C                                 Rx   d 8 28 8D 1D F1 93 26 B7 B6  Length = 221910 BitCount = 115 ID = 1868
1815.094678 1  74C                                 Rx   d 8 29 A0 71 7B BE 6F 2F 48  Length = 223910 BitCount = 116 ID = 1868
1815.094904 1  74C                                 Rx   d 8 2A C2 B6 B9 69 63 CB B3  Length = 217910 BitCount = 113 ID = 1868
1815.095130 1  74C                                 Rx   d 8 2B 7A E4 EC 93 DA 93 1C  Length = 217910 BitCount = 113 ID = 1868
1815.095364 1  74C                                 Rx   d 8 2C F9 D9 F6 92 5E 8F 8D  Length = 225925 BitCount = 117 ID = 1868
1815.095599 1  74C                                 Rx   d 8 2D D0 35 AF 9A D6 7F F9  Length = 225910 BitCount = 117 ID = 1868
1815.095829 1  74C                                 Rx   d 8 2E 52 C0 22 77 50 27 23  Length = 221910 BitCount = 115 ID = 1868
1815.096061 1  74C                                 Rx   d 8 2F 8B 61 EB 43 99 57 BB  Length = 223910 BitCount = 116 ID = 1868
1815.096293 1  74C                                 Rx   d 8 20 87 D9 0C B8 73 AA AA  Length = 223910 BitCount = 116 ID = 1868
1815.145887 1  75C                                 Rx   d 8 02 76 03 AA AA AA AA AA  Length = 219910 BitCount = 114 ID = 1884
1815.155939 1  CFED94Ax                            Rx   d 8 00 02 00 00 00 00 00 00  Length = 279910 BitCount = 144 ID = 218028362x
1815.163347 1  74C                                 Rx   d 8 13 84 36 04 52 E4 64 52  Length = 223910 BitCount = 116 ID = 1868
1815.165893 1  75C                                 Rx   d 8 30 00 00 AA AA AA AA AA  Length = 227910 BitCount = 118 ID = 1884
1815.175433 1  74C                                 Rx   d 8 21 93 66 B8 B3 1A FD 5E  Length = 219910 BitCount = 114 ID = 1868
1815.175662 1  74C                                 Rx   d 8 22 79 D4 77 70 08 B4 6C  Length = 219925 BitCount = 114 ID = 1868
1815.175896 1  74C                                 Rx   d 8 23 6C BB F1 22 59 A0 1A  Length = 225925 BitCount = 117 ID = 1868
1815.176128 1  74C                                 Rx   d 8 24 AE 22 17 58 9F 7C 22  Length = 223910 BitCount = 116 ID = 1868
1815.176358 1  74C                                 Rx   d 8 25 E8 9A 68 E4 01 BF 93  Length = 221910 BitCount = 115 ID = 1868
1815.176588 1  74C                                 Rx   d 8 26 98 11 39 EF E6 AB A5  Length = 221910 BitCount = 115 ID = 1868
1815.176814 1  74C                                 Rx   d 8 27 89 38 7A F3 D9 BC 44  Length = 217910 BitCount = 113 ID = 1868
1815.177048 1  74C                                 Rx   d 8 28 FB EB D8 F1 67 59 03  Length = 225910 BitCount = 117 ID = 1868
1815.177280 1  74C                                 Rx   d 8 29 B6 48 AA 70 17 8F A0  Length = 223910 BitCount = 116 ID = 1868
1815.177513 1  74C                                 Rx   d 8 2A D7 B9 36 2A 3F E6 9D  Length = 223910 BitCount = 116 ID = 1868
1815.177749 1  74C                                 Rx   d 8 2B 64 C3 50 64 17 CD 3F  Length = 227925 BitCount = 118 ID = 1868
1815.177983 1  74C                                 Rx   d 8 2C B2 72 42 05 7E 0C A1  Length = 225910 BitCount = 117 ID = 1868
1815.178215 1  74C                                 Rx   d 8 2D 30 7F AD CA 2B 3D B5  Length = 223910 BitCount = 116 ID = 1868
1815.178443 1  74C                                 Rx   d 8 2E 6E 11 97 32 B8 76 40  Length = 219910 BitCount = 114 ID = 1868
1815.178675 1  74C                                 Rx   d 8 2F EE CD 5A D8 0F F3 18  Length = 223910 BitCount = 116 ID = 1868
1815.178907 1  74C                                 Rx   d 8 20 E7 1E B7 67 46 34 5F  Length = 223910 BitCount = 116 ID = 1868
1815.179137 1  74C                                 Rx   d 8 21 36 D2 86 A0 56 6F 70  Length = 221925 BitCount = 115 ID = 1868
1815.179368 1  74C                                 Rx   d 8 22 90 A0 C3 1A 51 51 A9  Length = 221925 BitCount = 115 ID = 1868
1815.179596 1  74C                                 Rx   d 8 23 85 3D 12 59 E7 33 69  Length = 219910 BitCount = 114 ID = 1868
1815.179826 1  74C                                 Rx   d 8 24 02 6C F4 02 E3 4D 78  Length = 221910 BitCount = 115 ID = 1868
1815.180058 1  74C                                 Rx   d 8 25 98 B0 00 58 A6 FC 33  Length = 223910 BitCount = 116 ID = 1868
1815.180284 1  74C                                 Rx   d 8 26 C6 BD 70 AC A3 3D 51  Length = 217910 BitCount = 113 ID = 1868
1815.180518 1  74C                                 Rx   d 8 27 E1 FD 4D 68 A7 4F C5  Length = 225910 BitCount = 117 ID = 1868
1815.180752 1  74C                                 Rx   d 8 28 0B 5A 99 0A 39 3A 07  Length = 225910 BitCount = 117 ID = 1868
1815.180984 1  74C                                 Rx   d 8 29 1D 4A D4 7B E2 EC DF  Length = 223925 BitCount = 116 ID = 1868
1815.181214 1  74C                                 Rx   d 8 2A 80 59 DC 74 43 B9 C2  Length = 221910 BitCount = 115 ID = 1868
1815.181451 1  74C                                 Rx   d 8 2B E1 8D 2F 34 0B BF 80  Length = 227910 BitCount = 118 ID = 1868
1815.181685 1  74C                                 Rx   d 8 2C F9 E3 34 1A 12 C2 EF  Length = 225910 BitCount = 117 ID = 1868
1815.181913 1  74C                                 Rx   d 8 2D 6A F1 0D E8 44 44 1D  Length = 219910 BitCount = 114 ID = 1868
1815.182143 1  74C                                 Rx   d 8 2E E2 3E C6 57 5E 35 13  Length = 221910 BitCount = 115 ID = 1868
1815.182373 1  74C                                 Rx   d 8 2F 47 0C C9 45 BE E5 34  Length = 221910 BitCount = 115 ID = 1868
1815.182605 1  74C                                 Rx   d 8 20 2D BF 24 22 6C 2F 59  Length = 223925 BitCount = 116 ID = 1868
1815.182835 1  74C                                 Rx   d 8 21 36 28 D4 66 1B 90 20  Length = 221910 BitCount = 115 ID = 1868
1815.183065 1  74C                                 Rx   d 8 22 6F 90 E1 40 36 F7 3B  Length = 221910 BitCount = 115 ID = 1868
1815.183302 1  74C                                 Rx   d 8 23 74 BB 25 FF F1 7E FB  Length = 227910 BitCount = 118 ID = 1868
1815.183536 1  74C                                 Rx   d 8 24 C2 5F 53 3D 62 EF 87  Length = 225910 BitCount = 117 ID = 1868
1815.183770 1  74C                                 Rx   d 8 25 EF 9E D2 1C 27 CC 0E  Length = 225910 BitCount = 117 ID = 1868
1815.184006 1  74C                                 Rx   d 8 26 F7 C6 A7 E3 37 01 25  Length = 227910 BitCount = 118 ID = 1868
1815.184236 1  74C                                 Rx   d 8 27 00 4C EC 69 F8 B2 B5  Length = 221925 BitCount = 115 ID = 1868
1815.184464 1  74C                                 Rx   d 8 28 08 5B D0 AD 09 94 C4  Length = 219910 BitCount = 114 ID = 1868
1815.184694 1  74C                                 Rx   d 8 29 A3 1D F6 35 97 FC 34  Length = 221910 BitCount = 115 ID = 1868
1815.184922 1  74C                                 Rx   d 8 2A FB 3B AC AE 11 CC 6C  Length = 219910 BitCount = 114 ID = 1868
1815.185155 1  74C                                 Rx   d 8 2B BB A3 E9 2D 30 66 B9  Length = 223910 BitCount = 116 ID = 1868
1815.185385 1  74C                                 Rx   d 8 2C 7F 31 D0 83 64 79 A1  Length = 221910 BitCount = 115 ID = 1868
1815.185617 1  74C                                 Rx   d 8 2D 77 45 99 F0 06 6F 58  Length = 223910 BitCount = 116 ID = 1868
1815.185853 1  74C                                 Rx   d 8 2E AE FF 53 F4 5C 1E 76  Length = 227925 BitCount = 118 ID = 1868
1815.186083 1  74C                                 Rx   d 8 2F 8F 9C 2D 9B 88 AB 29  Length = 221910 BitCount = 115 ID = 1868
1815.186315 1  74C                                 Rx   d 8 20 3B 36 89 6F 9C 62 7F  Length = 223910 BitCount = 116 ID = 1868
1815.186545 1  74C                                 Rx   d 8 21 E2 37 7C 9D 83 88 DC  Length = 221910 BitCount = 115 ID = 1868
1815.186777 1  74C                                 Rx   d 8 22 A1 54 4F 1A 14 DE 6B  Length = 223910 BitCount = 116 ID = 1868
1815.187011 1  74C                                 Rx   d 8 23 9B 44 13 D9 D7 02 04  Length = 225910 BitCount = 117 ID = 1868
1815.187250 1  74C                                 Rx   d 8 24 1C 1A 06 03 AA DF F4  Length = 229910 BitCount = 119 ID = 1868
1815.187476 1  74C                                 Rx   d 8 25 12 DC 93 9E A8 91 CE  Length = 217925 BitCount = 113 ID = 1868
1815.187712 1  74C                                 Rx   d 8 26 D9 7D 2A DB C1 23 FF  Length = 227925 BitCount = 118 ID = 1868
1815.187946 1  74C                                 Rx   d 8 27 35 D3 05 B3 F1 88 23  Length = 225910 BitCount = 117 ID = 1868
1815.188174 1  74C                                 Rx   d 8 28 F7 56 56 0D 14 A5 B2  Length = 219910 BitCount = 114 ID = 1868
1815.188406 1  74C                                 Rx   d 8 29 93 0D 89 1F A6 EC F8  Length = 223910 BitCount = 116 ID = 1868
1815.188640 1  74C                                 Rx   d 8 2A 06 73 E9 5A E3 A4 20  Length = 225910 BitCount = 117 ID = 1868
1815.188870 1  74C                                 Rx   d 8 2B 46 1C 13 2E 29 94 54  Length = 221910 BitCount = 115 ID = 1868
1815.189103 1  74C                                 Rx   d 8 2C 12 24 39 7B BA 9A D0  Length = 223925 BitCount = 116 ID = 1868
1815.189337 1  74C                                 Rx   d 8 2D 7F EF A7 2C 4D 2D 31  Length = 225925 BitCount = 117 ID = 1868
1815.189567 1  74C                                 Rx   d 8 2E FB 76 E3 17 F9 E1 75  Length = 221910 BitCount = 115 ID = 1868
1815.189799 1  74C                                 Rx   d 8 2F 45 B0 6B AC 24 3E FC  Length = 223910 BitCount = 116 ID = 1868
1815.190031 1  74C                                 Rx   d 8 20 6B 2C A7 D9 62 8E 7F  Length = 223910 BitCount = 116 ID = 1868
1815.190263 1  74C                                 Rx   d 8 21 D3 38 63 5E A6 AA 07  Length = 223910 BitCount = 116 ID = 1868
1815.190495 1  74C                                 Rx   d 8 22 13 66 7D A7 C0 96 4C  Length = 223910 BitCount = 116 ID = 1868
1815.190725 1  74C                                 Rx   d 8 23 E8 2F 31 27 19 D0 84  Length = 221925 BitCount = 115 ID = 1868
1815.190954 1  74C                                 Rx   d 8 24 65 45 66 07 4C 2C 56  Length = 219925 BitCount = 114 ID = 1868
1815.191182 1  74C                                 Rx   d 8 25 B7 8B 20 6E 11 AD EE  Length = 219910 BitCount = 114 ID = 1868
1815.191410 1  74C                                 Rx   d 8 26 54 A3 19 DB C9 04 D2  Length = 219910 BitCount = 114 ID = 1868
1815.191640 1  74C                                 Rx   d 8 27 BC 93 28 4A 01 28 BC  Length = 221910 BitCount = 115 ID = 1868
1815.191872 1  74C                                 Rx   d 8 28 32 5B 9D D3 E7 B1 88  Length = 223910 BitCount = 116 ID = 1868
1815.192104 1  74C                                 Rx   d 8 29 A1 EA A0 CC 96 BA B3  Length = 223910 BitCount = 116 ID = 1868
1815.192340 1  74C                                 Rx   d 8 2A E8 0A AF E3 5C B0 7D  Length = 227910 BitCount = 118 ID = 1868
1815.192570 1  74C                                 Rx   d 8 2B D9 38 CB FC 54 18 46  Length = 221925 BitCount = 115 ID = 1868
1815.192802 1  74C                                 Rx   d 8 2C 3D AF 69 29 07 09 FB  Length = 223910 BitCount = 116 ID = 1868
1815.193029 1  74C                                 Rx   d 8 2D 35 B4 D1 5A A6 6E F3  Length = 217910 BitCount = 113 ID = 1868
1815.193257 1  74C                                 Rx   d 8 2E 56 FB CD 8E 56 E8 93  Length = 219910 BitCount = 114 ID = 1868
1815.193489 1  74C                                 Rx   d 8 2F F4 DE A7 AC 04 4F DE  Length = 223910 BitCount = 116 ID = 1868
1815.193723 1  74C                                 Rx   d 8 20 6F A3 E4 55 C5 4E 6A  Length = 225910 BitCount = 117 ID = 1868
1815.193955 1  74C                                 Rx   d 8 21 94 13 04 D3 3E 8B 71  Length = 223925 BitCount = 116 ID = 1868
1815.194187 1  74C                                 Rx   d 8 22 B9 30 5F A2 40 84 97  Length = 223925 BitCount = 116 ID = 1868
1815.194419 1  74C                                 Rx   d 8 23 B2 1C 1A 08 7B 26 C3  Length = 223910 BitCount = 116 ID = 1868
1815.194645 1  74C                                 Rx   d 8 24 56 6E D3 4D 74 6F 38  Length = 217910 BitCount = 113 ID = 1868
1815.194874 1  74C                                 Rx   d 8 25 CB 9E 64 DD BE 28 F5  Length = 219910 BitCount = 114 ID = 1868
1815.195106 1  74C                                 Rx   d 8 26 B1 E2 71 60 36 BE C7  Length = 223910 BitCount = 116 ID = 1868
1815.195332 1  74C                                 Rx   d 8 27 A5 38 74 D5 6C 8E AA  Length = 217910 BitCount = 113 ID = 1868
1815.195560 1  74C                                 Rx   d 8 28 6F 3B C8 4F F3 69 89  Length = 219910 BitCount = 114 ID = 1868
1815.195788 1  74C                                 Rx   d 8 29 4D 33 13 36 E5 E9 67  Length = 219925 BitCount = 114 ID = 1868
1815.196018 1  74C                                 Rx   d 8 2A 37 2E 9C FE C4 66 88  Length = 221910 BitCount = 115 ID = 1868
1815.196248 1  74C                                 Rx   d 8 2B C2 19 92 1C 3F 2C FD  Length = 221910 BitCount = 115 ID = 1868
1815.196478 1  74C                                 Rx   d 8 2C D6 32 45 A0 58 2E 3A  Length = 221910 BitCount = 115 ID = 1868
1815.196705 1  74C                                 Rx   d 8 2D A2 A8 84 45 37 08 AA  Length = 217910 BitCount = 113 ID = 1868
1815.196937 1  74C                                 Rx   d 8 2E 60 9E 80 35 1A 2B 4C  Length = 223910 BitCount = 116 ID = 1868
1815.197167 1  74C                                 Rx   d 8 2F 9B DD B8 DE 8C 56 8D  Length = 221910 BitCount = 115 ID = 1868
1815.197401 1  74C                                 Rx   d 8 20 F5 C5 F3 7A C4 B6 FF  Length = 225925 BitCount = 117 ID = 1868
1815.197635 1  74C                                 Rx   d 8 21 C9 59 B0 66 6A 74 D5  Length = 225910 BitCount = 117 ID = 1868
1815.197865 1  74C                                 Rx   d 8 22 DB D6 14 F7 FA 0A AD  Length = 221910 BitCount = 115 ID = 1868
1815.198095 1  74C                                 Rx   d 8 23 8A F0 4C CA AF A3 AB  Length = 221910 BitCount = 115 ID = 1868
1815.198321 1  74C                                 Rx   d 8 24 65 8B C7 3A 13 5D 9B  Length = 217910 BitCount = 113 ID = 1868
1815.198552 1  74C                                 Rx   d 8 25 10 EB 27 9B D7 3E 5F  Length = 221910 BitCount = 115 ID = 1868
1815.198780 1  74C                                 Rx   d 8 26 27 7E 5B 93 6F 09 6A  Length = 219910 BitCount = 114 ID = 1868
1815.199010 1  74C                                 Rx   d 8 27 47 4A ED 31 BE 65 6A  Length = 221925 BitCount = 115 ID = 1868
1815.199240 1  74C                                 Rx   d 8 28 60 12 E9 75 2C 60 7B  Length = 221910 BitCount = 115 ID = 1868
1815.199470 1  74C                                 Rx   d 8 29 4B 77 56 D6 5E DA BE  Length = 221910 BitCount = 115 ID = 1868
1815.199706 1  74C                                 Rx   d 8 2A FF D9 22 0C B7 5F A2  Length = 227910 BitCount = 118 ID = 1868
1815.199938 1  74C                                 Rx   d 8 2B E7 30 C5 DE 1A 3E CE  Length = 223910 BitCount = 116 ID = 1868
1815.200166 1  74C                                 Rx   d 8 2C C7 77 BB 91 ED 9D BC  Length = 219910 BitCount = 114 ID = 1868
1815.200396 1  74C                                 Rx   d 8 2D 13 9D 94 8B 37 18 1B  Length = 221910 BitCount = 115 ID = 1868
1815.200625 1  74C                                 Rx   d 8 2E D3 A0 3B DA 22 15 C6  Length = 219925 BitCount = 114 ID = 1868
1815.200859 1  74C                                 Rx   d 8 2F F0 32 C1 5B 2B 77 E4  Length = 225925 BitCount = 117 ID = 1868
1815.201095 1  74C                                 Rx   d 8 20 47 C3 6B 82 09 3A D2  Length = 227910 BitCount = 118 ID = 1868
1815.201323 1  74C                                 Rx   d 8 21 C2 C6 CF 8E 42 46 65  Length = 219910 BitCount = 114 ID = 1868
1815.201553 1  74C                                 Rx   d 8 22 3E 4C 67 66 37 A0 85  Length = 221910 BitCount = 115 ID = 1868
1815.201785 1  74C                                 Rx   d 8 23 43 80 49 69 65 BC C0  Length = 223910 BitCount = 116 ID = 1868
1815.202017 1  74C                                 Rx   d 8 24 33 F8 29 D3 D2 1A C8  Length = 223910 BitCount = 116 ID = 1868
1815.202249 1  74C                                 Rx   d 8 25 DC 20 F2 6B B1 A1 F6  Length = 223925 BitCount = 116 ID = 1868
1815.202482 1  74C                                 Rx   d 8 26 BA 5A 2F 9A FB 60 44  Length = 223925 BitCount = 116 ID = 1868
1815.202720 1  74C                                 Rx   d 8 27 30 5B 3F F7 FD 76 7E  Length = 229910 BitCount = 119 ID = 1868
1815.202958 1  74C                                 Rx   d 8 28 98 0F 87 91 01 17 03  Length = 229910 BitCount = 119 ID = 1868
1815.203194 1  74C                                 Rx   d 8 29 5F 16 7E 01 27 AF 3F  Length = 227910 BitCount = 118 ID = 1868
1815.203426 1  74C                                 Rx   d 8 2A 3A 76 51 96 0F F4 F8  Length = 223910 BitCount = 116 ID = 1868
1815.203656 1  74C                                 Rx   d 8 2B FD 52 57 99 52 86 97  Length = 221910 BitCount = 115 ID = 1868
1815.203890 1  74C                                 Rx   d 8 2C F0 18 A7 04 28 E7 2D  Length = 225925 BitCount = 117 ID = 1868
1815.204120 1  74C                                 Rx   d 8 2D 71 7E B3 D3 E5 DC 3A  Length = 221925 BitCount = 115 ID = 1868
1815.204349 1  74C                                 Rx   d 8 2E C5 31 E1 5C C7 CC 61  Length = 219910 BitCount = 114 ID = 1868
1815.204585 1  74C                                 Rx   d 8 2F E4 00 97 49 2B F4 E0  Length = 227910 BitCount = 118 ID = 1868
1815.204815 1  74C                                 Rx   d 8 20 76 F1 62 96 4B AA AA  Length = 221910 BitCount = 115 ID = 1868
1815.245889 1  75C                                 Rx   d 8 02 76 04 AA AA AA AA AA  Length = 221910 BitCount = 115 ID = 1884
1815.253173 1  74C                                 Rx   d 8 13 84 36 05 02 3E 8A 96  Length = 223910 BitCount = 116 ID = 1868
1815.255895 1  75C                                 Rx   d 8 30 00 00 AA AA AA AA AA  Length = 227910 BitCount = 118 ID = 1884
1815.265953 1  74C                                 Rx   d 8 21 6B F9 65 F3 BA 50 F0  Length = 223910 BitCount = 116 ID = 1868
1815.266183 1  74C                                 Rx   d 8 22 86 09 6A 34 1B 73 1E  Length = 221925 BitCount = 115 ID = 1868
1815.266413 1  74C                                 Rx   d 8 23 83 97 98 8A AF 16 A5  Length = 221925 BitCount = 115 ID = 1868
1815.266641 1  74C                                 Rx   d 8 24 F2 5C 54 48 A4 84 58  Length = 219910 BitCount = 114 ID = 1868
1815.266874 1  74C                                 Rx   d 8 25 6A F3 0C 8D 8E A7 D1  Length = 223910 BitCount = 116 ID = 1868
1815.267100 1  74C                                 Rx   d 8 26 6F 46 F0 8D 5D 68 A4  Length = 217910 BitCount = 113 ID = 1868
1815.267328 1  74C                                 Rx   d 8 27 85 8C ED 4A 81 5D B9  Length = 219910 BitCount = 114 ID = 1868
1815.267558 1  74C                                 Rx   d 8 28 C4 8E 33 26 2D DF FE  Length = 221910 BitCount = 115 ID = 1868
1815.267792 1  74C                                 Rx   d 8 29 BE 09 7C E3 6D 1F 5E  Length = 225910 BitCount = 117 ID = 1868
1815.268022 1  74C                                 Rx   d 8 2A 6B 30 39 ED E1 D1 34  Length = 221925 BitCount = 115 ID = 1868
1815.268252 1  74C                                 Rx   d 8 2B 36 CF A9 B6 D5 80 A4  Length = 221925 BitCount = 115 ID = 1868
1815.268486 1  74C                                 Rx   d 8 2C A4 FD 3E 59 F9 79 AF  Length = 225910 BitCount = 117 ID = 1868
1815.268715 1  74C                                 Rx   d 8 2D 92 26 05 AB 27 29 3A  Length = 219910 BitCount = 114 ID = 1868
1815.268941 1  74C                                 Rx   d 8 2E BB 54 B3 32 6C 4B 4F  Length = 217910 BitCount = 113 ID = 1868
1815.269175 1  74C                                 Rx   d 8 2F 67 94 39 7C 7F C0 34  Length = 225910 BitCount = 117 ID = 1868
1815.269407 1  74C                                 Rx   d 8 20 25 37 80 29 59 08 47  Length = 223910 BitCount = 116 ID = 1868
1815.269635 1  74C                                 Rx   d 8 21 B6 EE CB 6D 8D FB A6  Length = 219910 BitCount = 114 ID = 1868
1815.269867 1  74C                                 Rx   d 8 22 B0 45 8C E4 A5 61 24  Length = 223925 BitCount = 116 ID = 1868
1815.270097 1  74C                                 Rx   d 8 23 6F C8 A9 E4 44 96 F7  Length = 221910 BitCount = 115 ID = 1868
1815.270327 1  74C                                 Rx   d 8 24 EF 41 CD E8 5D 3A D1  Length = 221910 BitCount = 115 ID = 1868
1815.270557 1  74C                                 Rx   d 8 25 C5 A9 62 D3 F1 C2 6F  Length = 221910 BitCount = 115 ID = 1868
1815.270792 1  74C                                 Rx   d 8 26 CE 81 02 D6 CD A5 5F  Length = 225910 BitCount = 117 ID = 1868
1815.271020 1  74C                                 Rx   d 8 27 55 84 CF 67 38 AA 6F  Length = 219910 BitCount = 114 ID = 1868
1815.271256 1  74C                                 Rx   d 8 28 B4 74 3E FC C2 2F 60  Length = 227910 BitCount = 118 ID = 1868
1815.271486 1  74C                                 Rx   d 8 29 72 0B 9A 88 B2 BF 95  Length = 221925 BitCount = 115 ID = 1868
1815.271712 1  74C                                 Rx   d 8 2A CC C8 8B 62 31 DD B1  Length = 217910 BitCount = 113 ID = 1868
1815.271942 1  74C                                 Rx   d 8 2B DC CB DC 54 BF 4F F4  Length = 221910 BitCount = 115 ID = 1868
1815.272172 1  74C                                 Rx   d 8 2C 2C 17 12 AA C5 06 73  Length = 221910 BitCount = 115 ID = 1868
1815.272402 1  74C                                 Rx   d 8 2D C9 E9 C8 24 75 11 15  Length = 221910 BitCount = 115 ID = 1868
1815.272633 1  74C                                 Rx   d 8 2E 14 AF 94 7E 7B 26 78  Length = 221910 BitCount = 115 ID = 1868
1815.272863 1  74C                                 Rx   d 8 2F F3 CB BF 63 47 29 55  Length = 221910 BitCount = 115 ID = 1868
1815.273093 1  74C                                 Rx   d 8 20 4E 1B CF B8 72 71 96  Length = 221925 BitCount = 115 ID = 1868
1815.273323 1  74C                                 Rx   d 8 21 52 A8 22 F1 9E DB 06  Length = 221910 BitCount = 115 ID = 1868
1815.273551 1  74C                                 Rx   d 8 22 10 9C 2F AD 87 58 78  Length = 219910 BitCount = 114 ID = 1868
1815.273781 1  74C                                 Rx   d 8 23 35 D7 29 F2 30 93 83  Length = 221910 BitCount = 115 ID = 1868
1815.274011 1  74C                                 Rx   d 8 24 81 85 E1 2C E2 FE 66  Length = 221910 BitCount = 115 ID = 1868
1815.274239 1  74C                                 Rx   d 8 25 F9 AE 38 CE 22 E5 89  Length = 219910 BitCount = 114 ID = 1868
1815.274474 1  74C                                 Rx   d 8 26 3C 01 06 77 B8 32 73  Length = 225910 BitCount = 117 ID = 1868
1815.274708 1  74C                                 Rx   d 8 27 C0 70 05 63 8A DA 75  Length = 225925 BitCount = 117 ID = 1868
1815.274944 1  74C                                 Rx   d 8 28 3D 3B 65 5F BE 31 BD  Length = 227910 BitCount = 118 ID = 1868
1815.275172 1  74C                                 Rx   d 8 29 EF 51 32 4C 15 76 EB  Length = 219910 BitCount = 114 ID = 1868
1815.275402 1  74C                                 Rx   d 8 2A BA D6 24 52 EB E1 45  Length = 221910 BitCount = 115 ID = 1868
1815.275634 1  74C                                 Rx   d 8 2B D0 1F 58 46 74 53 1B  Length = 223910 BitCount = 116 ID = 1868
1815.275862 1  74C                                 Rx   d 8 2C 36 D5 09 6A 76 B8 95  Length = 219910 BitCount = 114 ID = 1868
1815.276090 1  74C                                 Rx   d 8 2D 67 F1 DE F6 4E 4C 44  Length = 219910 BitCount = 114 ID = 1868
1815.276325 1  74C                                 Rx   d 8 2E F1 DF E2 93 E7 80 AE  Length = 225925 BitCount = 117 ID = 1868
1815.276561 1  74C                                 Rx   d 8 2F F4 B1 0A B9 F0 D1 80  Length = 227925 BitCount = 118 ID = 1868
1815.276789 1  74C                                 Rx   d 8 20 A4 43 7A 63 B8 56 64  Length = 219910 BitCount = 114 ID = 1868
1815.277021 1  74C                                 Rx   d 8 21 E8 C0 49 92 01 DF BC  Length = 223910 BitCount = 116 ID = 1868
1815.277251 1  74C                                 Rx   d 8 22 FD FA 2D 4E B1 0D 39  Length = 221910 BitCount = 115 ID = 1868
1815.277481 1  74C                                 Rx   d 8 23 53 1A 92 B1 CC A9 C5  Length = 221910 BitCount = 115 ID = 1868
1815.277711 1  74C                                 Rx   d 8 24 18 F5 43 64 0E ED DE  Length = 221910 BitCount = 115 ID = 1868
1815.277939 1  74C                                 Rx   d 8 25 A0 85 44 C5 CA F6 69  Length = 219925 BitCount = 114 ID = 1868
1815.278171 1  74C                                 Rx   d 8 26 AF B0 55 2C 21 5F 1A  Length = 223925 BitCount = 116 ID = 1868
1815.278398 1  74C                                 Rx   d 8 27 A8 88 F5 6B AB 7B 88  Length = 217910 BitCount = 113 ID = 1868
1815.278626 1  74C                                 Rx   d 8 28 27 84 45 8C 2B 48 50  Length = 219910 BitCount = 114 ID = 1868
1815.278856 1  74C                                 Rx   d 8 29 4E 7D F1 2B 3C C3 4E  Length = 221910 BitCount = 115 ID = 1868
1815.279086 1  74C                                 Rx   d 8 2A 61 C8 CF E2 8C D0 4A  Length = 221910 BitCount = 115 ID = 1868
1815.279316 1  74C                                 Rx   d 8 2B 25 DD 16 3D CA C0 0A  Length = 221910 BitCount = 115 ID = 1868
1815.279552 1  74C                                 Rx   d 8 2C 47 2C A6 9F 8F BC E0  Length = 227910 BitCount = 118 ID = 1868
1815.279778 1  74C                                 Rx   d 8 2D D8 E9 5E 4D E3 27 95  Length = 217925 BitCount = 113 ID = 1868
1815.280008 1  74C                                 Rx   d 8 2E CB 10 AD FC CD 98 75  Length = 221910 BitCount = 115 ID = 1868
1815.280241 1  74C                                 Rx   d 8 2F 6C A2 3E 67 1F A0 27  Length = 223910 BitCount = 116 ID = 1868
1815.280473 1  74C                                 Rx   d 8 20 ED 7F 87 5C E5 55 9E  Length = 223910 BitCount = 116 ID = 1868
1815.280703 1  74C                                 Rx   d 8 21 3A 44 41 79 F1 1E C9  Length = 221910 BitCount = 115 ID = 1868
1815.280931 1  74C                                 Rx   d 8 22 E2 DD 37 62 0A 47 0B  Length = 219910 BitCount = 114 ID = 1868
1815.281157 1  74C                                 Rx   d 8 23 6E 14 9E 12 46 9D 97  Length = 217910 BitCount = 113 ID = 1868
1815.281389 1  74C                                 Rx   d 8 24 A7 3A EF 64 16 41 18  Length = 223925 BitCount = 116 ID = 1868
1815.281619 1  74C                                 Rx   d 8 25 7C A4 A8 64 77 D9 39  Length = 221910 BitCount = 115 ID = 1868
1815.281847 1  74C                                 Rx   d 8 26 C4 AA 5B C6 B6 70 61  Length = 219910 BitCount = 114 ID = 1868
1815.282076 1  74C                                 Rx   d 8 27 3E 26 6B 35 C8 A2 D8  Length = 219910 BitCount = 114 ID = 1868
1815.282312 1  74C                                 Rx   d 8 28 2F 86 29 FE A7 98 95  Length = 227910 BitCount = 118 ID = 1868
1815.282544 1  74C                                 Rx   d 8 29 26 41 2B AB AE 7E 1D  Length = 223910 BitCount = 116 ID = 1868
1815.282770 1  74C                                 Rx   d 8 2A DE AF 36 54 E5 61 42  Length = 217910 BitCount = 113 ID = 1868
1815.282996 1  74C                                 Rx   d 8 2B D5 AA 99 C5 AD 86 C3  Length = 217925 BitCount = 113 ID = 1868
1815.283222 1  74C                                 Rx   d 8 2C BD 12 3C B6 61 EC D6  Length = 217910 BitCount = 113 ID = 1868
1815.283450 1  74C                                 Rx   d 8 2D B8 41 52 EE 53 CD 7A  Length = 219910 BitCount = 114 ID = 1868
1815.283682 1  74C                                 Rx   d 8 2E 04 85 69 1C 1C 52 35  Length = 223910 BitCount = 116 ID = 1868
1815.283916 1  74C                                 Rx   d 8 2F DE BC BC 5F BC D7 45  Length = 225910 BitCount = 117 ID = 1868
1815.284153 1  74C                                 Rx   d 8 20 06 5F 0D 84 B6 77 21  Length = 227910 BitCount = 118 ID = 1868
1815.284381 1  74C                                 Rx   d 8 21 E5 DC 08 D1 E8 D1 1C  Length = 219910 BitCount = 114 ID = 1868
1815.284615 1  74C                                 Rx   d 8 22 7B BF F8 72 C2 DC 7C  Length = 225925 BitCount = 117 ID = 1868
1815.284845 1  74C                                 Rx   d 8 23 5E 5C 7D 13 7A 0D CC  Length = 221910 BitCount = 115 ID = 1868
1815.285077 1  74C                                 Rx   d 8 24 98 CE C9 3B EF CF 4A  Length = 223910 BitCount = 116 ID = 1868
1815.285305 1  74C                                 Rx   d 8 25 B7 5E 92 AE 65 78 A8  Length = 219910 BitCount = 114 ID = 1868
1815.285537 1  74C                                 Rx   d 8 26 63 F0 33 25 A8 55 5F  Length = 223910 BitCount = 116 ID = 1868
1815.285771 1  74C                                 Rx   d 8 27 EE D5 E1 40 7E 69 BA  Length = 225910 BitCount = 117 ID = 1868
1815.286000 1  74C                                 Rx   d 8 28 C8 48 94 5E D3 58 04  Length = 219910 BitCount = 114 ID = 1868
1815.286228 1  74C                                 Rx   d 8 29 CE 4D B8 A2 BE 7A 1D  Length = 219925 BitCount = 114 ID = 1868
1815.286454 1  74C                                 Rx   d 8 2A 71 84 E3 DE 64 C2 6A  Length = 217925 BitCount = 113 ID = 1868
1815.286682 1  74C                                 Rx   d 8 2B C9 A5 EE AA CD 38 95  Length = 219910 BitCount = 114 ID = 1868
1815.286914 1  74C                                 Rx   d 8 2C 19 C7 A9 68 EC 05 90  Length = 223910 BitCount = 116 ID = 1868
1815.287146 1  74C                                 Rx   d 8 2D C1 15 30 F0 1B C8 40  Length = 223910 BitCount = 116 ID = 1868
1815.287372 1  74C                                 Rx   d 8 2E B7 0A E7 6D 78 A2 29  Length = 217910 BitCount = 113 ID = 1868
1815.287610 1  74C                                 Rx   d 8 2F BE 86 1F 20 29 3D 27  Length = 229910 BitCount = 119 ID = 1868
1815.287849 1  74C                                 Rx   d 8 20 C4 7D 2D B5 FF FE 8C  Length = 229925 BitCount = 119 ID = 1868
1815.288079 1  74C                                 Rx   d 8 21 98 90 21 FA AB DA CC  Length = 221910 BitCount = 115 ID = 1868
1815.288309 1  74C                                 Rx   d 8 22 CD 5E B3 39 BD F4 C1  Length = 221910 BitCount = 115 ID = 1868
1815.288539 1  74C                                 Rx   d 8 23 FB 20 64 30 B9 DA 3C  Length = 221910 BitCount = 115 ID = 1868
1815.288775 1  74C                                 Rx   d 8 24 FF 94 5D 7B 4A 85 F4  Length = 227910 BitCount = 118 ID = 1868
1815.289005 1  74C                                 Rx   d 8 25 E8 E8 34 46 69 91 BF  Length = 221910 BitCount = 115 ID = 1868
1815.289235 1  74C                                 Rx   d 8 26 9C 1B 49 50 32 6E A7  Length = 221910 BitCount = 115 ID = 1868
1815.289465 1  74C                                 Rx   d 8 27 8F A2 91 9E 4D AF E2  Length = 221925 BitCount = 115 ID = 1868
1815.289700 1  74C                                 Rx   d 8 28 AF B7 21 0C A3 4D CF  Length = 225925 BitCount = 117 ID = 1868
1815.289930 1  74C                                 Rx   d 8 29 FB 69 C3 B7 9E 76 06  Length = 221910 BitCount = 115 ID = 1868
1815.290160 1  74C                                 Rx   d 8 2A 9A FE 0A BC A8 AD D3  Length = 221910 BitCount = 115 ID = 1868
1815.290386 1  74C                                 Rx   d 8 2B 2B 62 39 4B A1 C3 54  Length = 217910 BitCount = 113 ID = 1868
1815.290616 1  74C                                 Rx   d 8 2C 61 2E 37 47 7D 16 10  Length = 221910 BitCount = 115 ID = 1868
1815.290848 1  74C                                 Rx   d 8 2D 73 E7 64 E6 6C 00 B7  Length = 223910 BitCount = 116 ID = 1868
1815.291076 1  74C                                 Rx   d 8 2E 9D 82 4B 1B AE B8 64  Length = 219925 BitCount = 114 ID = 1868
1815.291308 1  74C                                 Rx   d 8 2F 88 52 BE 6B F9 0C 2B  Length = 223925 BitCount = 116 ID = 1868
1815.291538 1  74C                                 Rx   d 8 20 C7 CF 24 3B 68 A1 62  Length = 221910 BitCount = 115 ID = 1868
1815.291775 1  74C                                 Rx   d 8 21 F7 15 70 3E 4B 46 7E  Length = 227910 BitCount = 118 ID = 1868
1815.292007 1  74C                                 Rx   d 8 22 AE DF A9 DD 97 EA 20  Length = 223910 BitCount = 116 ID = 1868
1815.292237 1  74C                                 Rx   d 8 23 E8 2F 65 A6 97 44 2D  Length = 221910 BitCount = 115 ID = 1868
1815.292465 1  74C                                 Rx   d 8 24 8D EB D6 7F 72 67 53  Length = 219910 BitCount = 114 ID = 1868
1815.292693 1  74C                                 Rx   d 8 25 AE C6 2E 9F B9 76 87  Length = 219910 BitCount = 114 ID = 1868
1815.292925 1  74C                                 Rx   d 8 26 29 B7 80 8E 1E 57 F8  Length = 223925 BitCount = 116 ID = 1868
1815.293159 1  74C                                 Rx   d 8 27 CC 83 50 04 2F AD 27  Length = 225910 BitCount = 117 ID = 1868
1815.293393 1  74C                                 Rx   d 8 28 1F 17 60 96 DD B3 DD  Length = 225910 BitCount = 117 ID = 1868
1815.293628 1  74C                                 Rx   d 8 29 37 83 48 66 3E BE 6F  Length = 225910 BitCount = 117 ID = 1868
1815.293860 1  74C                                 Rx   d 8 2A 17 32 82 16 DA 38 39  Length = 223910 BitCount = 116 ID = 1868
1815.294088 1  74C                                 Rx   d 8 2B 38 B5 CA C5 55 58 2B  Length = 219910 BitCount = 114 ID = 1868
1815.294322 1  74C                                 Rx   d 8 2C 22 EA CC 00 95 7A FE  Length = 225910 BitCount = 117 ID = 1868
1815.294548 1  74C                                 Rx   d 8 2D EE CE 93 49 EC EB 21  Length = 217925 BitCount = 113 ID = 1868
1815.294780 1  74C                                 Rx   d 8 2E 1C AD 78 55 3F B0 E0  Length = 223910 BitCount = 116 ID = 1868
1815.295008 1  74C                                 Rx   d 8 2F 6E 33 0B A1 58 4F 25  Length = 219910 BitCount = 114 ID = 1868
1815.295238 1  74C                                 Rx   d 8 20 65 C8 AB 35 7E AA AA  Length = 221910 BitCount = 115 ID = 1868
1815.335888 1  75C                                 Rx   d 8 02 76 05 AA AA AA AA AA  Length = 221910 BitCount = 115 ID = 1884
1815.345532 1  74C                                 Rx   d 8 13 84 36 06 57 2F 45 D3  Length = 219910 BitCount = 114 ID = 1868
1815.345895 1  75C                                 Rx   d 8 30 00 00 AA AA AA AA AA  Length = 227910 BitCount = 118 ID = 1884
1815.359163 1  74C                                 Rx   d 8 21 3A 72 81 0E 41 C7 D7  Length = 225910 BitCount = 117 ID = 1868
1815.359393 1  74C                                 Rx   d 8 22 62 BE DB 69 C6 8B 28  Length = 221910 BitCount = 115 ID = 1868
1815.359621 1  74C                                 Rx   d 8 23 D8 B5 8A 3E BD 51 4E  Length = 219910 BitCount = 114 ID = 1868
1815.359853 1  74C                                 Rx   d 8 24 8E 09 4D 81 16 3E 56  Length = 223910 BitCount = 116 ID = 1868
1815.360081 1  74C                                 Rx   d 8 25 32 95 96 F1 99 36 5E  Length = 219910 BitCount = 114 ID = 1868
1815.360313 1  74C                                 Rx   d 8 26 C1 AE AA 72 EF AD B4  Length = 223925 BitCount = 116 ID = 1868
1815.360545 1  74C                                 Rx   d 8 27 73 A2 8C 90 7A E2 3E  Length = 223910 BitCount = 116 ID = 1868
1815.360773 1  74C                                 Rx   d 8 28 CA E7 D7 BA DC 99 08  Length = 219910 BitCount = 114 ID = 1868
1815.361008 1  74C                                 Rx   d 8 29 F9 50 1A F9 70 15 C8  Length = 225910 BitCount = 117 ID = 1868
1815.361238 1  74C                                 Rx   d 8 2A 08 EE BF B5 16 F7 18  Length = 221910 BitCount = 115 ID = 1868
1815.361464 1  74C                                 Rx   d 8 2B 3C 95 74 CF 72 CB DA  Length = 217910 BitCount = 113 ID = 1868
1815.361700 1  74C                                 Rx   d 8 2C 89 B0 78 5B 87 F6 73  Length = 227910 BitCount = 118 ID = 1868
1815.361928 1  74C                                 Rx   d 8 2D B0 D4 74 F8 EA 92 74  Length = 219925 BitCount = 114 ID = 1868
1815.362158 1  74C                                 Rx   d 8 2E 08 DF 53 4C 8A 2F 67  Length = 221910 BitCount = 115 ID = 1868
1815.362392 1  74C                                 Rx   d 8 2F F0 57 6B 9B 9E FF EF  Length = 225910 BitCount = 117 ID = 1868
1815.362626 1  74C                                 Rx   d 8 20 22 B9 AF D7 D5 BB B3  Length = 225910 BitCount = 117 ID = 1868
1815.362861 1  74C                                 Rx   d 8 21 8B 8B 63 EE FE B4 BE  Length = 225910 BitCount = 117 ID = 1868
1815.363091 1  74C                                 Rx   d 8 22 B1 99 26 10 F7 80 59  Length = 221910 BitCount = 115 ID = 1868
1815.363321 1  74C                                 Rx   d 8 23 5C FD C5 4D 2C BE 5D  Length = 221910 BitCount = 115 ID = 1868
1815.363551 1  74C                                 Rx   d 8 24 D3 82 B2 5C 47 BA E5  Length = 221925 BitCount = 115 ID = 1868
1815.363779 1  74C                                 Rx   d 8 25 E3 5B 9D 12 25 11 C5  Length = 219925 BitCount = 114 ID = 1868
1815.364009 1  74C                                 Rx   d 8 26 5E 64 42 E7 17 50 01  Length = 221910 BitCount = 115 ID = 1868
1815.364239 1  74C                                 Rx   d 8 27 D4 58 D1 9D A1 0B B5  Length = 221910 BitCount = 115 ID = 1868
1815.364467 1  74C                                 Rx   d 8 28 F5 30 93 0D 86 BE B0  Length = 219910 BitCount = 114 ID = 1868
1815.364705 1  74C                                 Rx   d 8 29 53 EF D8 81 CF 02 B3  Length = 229910 BitCount = 119 ID = 1868
1815.364932 1  74C                                 Rx   d 8 2A 96 2A 2E AD 39 E1 DA  Length = 217910 BitCount = 113 ID = 1868
1815.365168 1  74C                                 Rx   d 8 2B 16 4A 04 03 BE 18 35  Length = 227925 BitCount = 118 ID = 1868
1815.365400 1  74C                                 Rx   d 8 2C 1F AB BE B4 57 6A 73  Length = 223925 BitCount = 116 ID = 1868
1815.365634 1  74C                                 Rx   d 8 2D E0 5E 68 8F B4 7E A9  Length = 225910 BitCount = 117 ID = 1868
1815.365864 1  74C                                 Rx   d 8 2E CF 2F 70 E3 8A FE 30  Length = 221910 BitCount = 115 ID = 1868
1815.366094 1  74C                                 Rx   d 8 2F 06 DD 24 F7 5C EC 71  Length = 221910 BitCount = 115 ID = 1868
1815.366324 1  74C                                 Rx   d 8 20 23 99 C4 A4 7F 55 B5  Length = 221910 BitCount = 115 ID = 1868
1815.366554 1  74C                                 Rx   d 8 21 D7 5C 6C FD 02 19 8C  Length = 221910 BitCount = 115 ID = 1868
1815.366785 1  74C                                 Rx   d 8 22 E8 37 36 EB F5 4B 89  Length = 221925 BitCount = 115 ID = 1868
1815.367017 1  74C                                 Rx   d 8 23 D9 4B EC 08 93 42 88  Length = 223925 BitCount = 116 ID = 1868
1815.367247 1  74C                                 Rx   d 8 24 54 D0 07 8C F4 18 AC  Length = 221910 BitCount = 115 ID = 1868
1815.367477 1  74C                                 Rx   d 8 25 E7 E6 91 65 8D DC 45  Length = 221910 BitCount = 115 ID = 1868
1815.367709 1  74C                                 Rx   d 8 26 FD 90 96 E6 0F 43 52  Length = 223910 BitCount = 116 ID = 1868
1815.367937 1  74C                                 Rx   d 8 27 76 8B 51 69 E4 A1 FB  Length = 219910 BitCount = 114 ID = 1868
1815.368165 1  74C                                 Rx   d 8 28 C2 84 72 DA 26 22 29  Length = 219910 BitCount = 114 ID = 1868
1815.368397 1  74C                                 Rx   d 8 29 14 FF CA B9 52 49 72  Length = 223910 BitCount = 116 ID = 1868
1815.368626 1  74C                                 Rx   d 8 2A 45 1B FA B1 A9 56 8B  Length = 219925 BitCount = 114 ID = 1868
1815.368858 1  74C                                 Rx   d 8 2B 67 6A 42 FF E2 5D A7  Length = 223910 BitCount = 116 ID = 1868
1815.369086 1  74C                                 Rx   d 8 2C BF 22 56 C3 0A 6C 36  Length = 219910 BitCount = 114 ID = 1868
1815.369320 1  74C                                 Rx   d 8 2D FA 00 5B 29 76 35 8D  Length = 225910 BitCount = 117 ID = 1868
1815.369552 1  74C                                 Rx   d 8 2E D2 A7 F5 27 91 7C 1B  Length = 223910 BitCount = 116 ID = 1868
1815.369780 1  74C                                 Rx   d 8 2F 19 46 EE 42 4E 97 E9  Length = 219910 BitCount = 114 ID = 1868
1815.370010 1  74C                                 Rx   d 8 20 74 DE 33 23 B2 10 F5  Length = 221910 BitCount = 115 ID = 1868
1815.370238 1  74C                                 Rx   d 8 21 5E 47 7A 82 71 D8 DD  Length = 219925 BitCount = 114 ID = 1868
1815.370476 1  74C                                 Rx   d 8 22 31 F3 78 E0 F2 FE B2  Length = 229910 BitCount = 119 ID = 1868
1815.370703 1  74C                                 Rx   d 8 23 34 9D 49 AE E3 9C 8A  Length = 217910 BitCount = 113 ID = 1868
1815.370933 1  74C                                 Rx   d 8 24 0A 70 B9 E2 B9 36 8C  Length = 221910 BitCount = 115 ID = 1868
1815.371167 1  74C                                 Rx   d 8 25 A9 06 0C 07 84 CD 9F  Length = 225910 BitCount = 117 ID = 1868
1815.371397 1  74C                                 Rx   d 8 26 D9 36 AB 31 D4 B6 0D  Length = 221910 BitCount = 115 ID = 1868
1815.371627 1  74C                                 Rx   d 8 27 8F E6 64 51 28 26 52  Length = 221910 BitCount = 115 ID = 1868
1815.371863 1  74C                                 Rx   d 8 28 2B DE 0B F9 12 D6 63  Length = 227925 BitCount = 118 ID = 1868
1815.372091 1  74C                                 Rx   d 8 29 B5 4E BE 99 7A C5 D8  Length = 219910 BitCount = 114 ID = 1868
1815.372321 1  74C                                 Rx   d 8 2A 4A C7 15 A3 55 F1 EC  Length = 221910 BitCount = 115 ID = 1868
1815.372552 1  74C                                 Rx   d 8 2B 03 83 76 6D BB 4F 10  Length = 221910 BitCount = 115 ID = 1868
1815.372780 1  74C                                 Rx   d 8 2C 27 8C 33 B2 8D 39 D1  Length = 219910 BitCount = 114 ID = 1868
1815.373012 1  74C                                 Rx   d 8 2D DF 90 D4 B6 7E 93 8F  Length = 223910 BitCount = 116 ID = 1868
1815.373242 1  74C                                 Rx   d 8 2E 2E 04 99 35 64 69 B6  Length = 221910 BitCount = 115 ID = 1868
1815.373474 1  74C                                 Rx   d 8 2F 05 A6 D8 84 7C 3A 2D  Length = 223925 BitCount = 116 ID = 1868
1815.373708 1  74C                                 Rx   d 8 20 07 8A FB 0D 1A D6 24  Length = 225910 BitCount = 117 ID = 1868
1815.373938 1  74C                                 Rx   d 8 21 91 53 F6 64 D3 D5 EA  Length = 221910 BitCount = 115 ID = 1868
1815.374166 1  74C                                 Rx   d 8 22 54 67 AF 5E 48 E7 E9  Length = 219910 BitCount = 114 ID = 1868
1815.374397 1  74C                                 Rx   d 8 23 7A 31 AD B7 61 70 16  Length = 221910 BitCount = 115 ID = 1868
1815.374631 1  74C                                 Rx   d 8 24 0F 01 66 4D CA DA 7C  Length = 225910 BitCount = 117 ID = 1868
1815.374863 1  74C                                 Rx   d 8 25 D2 1B 81 CC 2D CE 0C  Length = 223910 BitCount = 116 ID = 1868
1815.375095 1  74C                                 Rx   d 8 26 C7 F0 FB C4 40 F1 12  Length = 223925 BitCount = 116 ID = 1868
1815.375327 1  74C                                 Rx   d 8 27 0E BC 8C F7 FC 04 51  Length = 223925 BitCount = 116 ID = 1868
1815.375557 1  74C                                 Rx   d 8 28 97 B0 46 EF 6D CA 74  Length = 221910 BitCount = 115 ID = 1868
1815.375789 1  74C                                 Rx   d 8 29 2D 7A 74 17 0E 74 01  Length = 223910 BitCount = 116 ID = 1868
1815.376021 1  74C                                 Rx   d 8 2A 35 80 B6 A6 EE CC 41  Length = 223910 BitCount = 116 ID = 1868
1815.376250 1  74C                                 Rx   d 8 2B FE 1C 9E 4B 6A 4B AE  Length = 219910 BitCount = 114 ID = 1868
1815.376478 1  74C                                 Rx   d 8 2C F7 FD AD AD ED A6 B6  Length = 219910 BitCount = 114 ID = 1868
1815.376712 1  74C                                 Rx   d 8 2D 7E 39 BF B8 DA E0 76  Length = 225925 BitCount = 117 ID = 1868
1815.376946 1  74C                                 Rx   d 8 2E 86 CF A4 06 F0 57 5B  Length = 225925 BitCount = 117 ID = 1868
1815.377178 1  74C                                 Rx   d 8 2F 0C 94 05 3F BD 9E 6C  Length = 223910 BitCount = 116 ID = 1868
1815.377412 1  74C                                 Rx   d 8 20 09 69 B2 49 83 00 18  Length = 225910 BitCount = 117 ID = 1868
1815.377642 1  74C                                 Rx   d 8 21 8F 77 80 A4 A2 11 48  Length = 221910 BitCount = 115 ID = 1868
1815.377872 1  74C                                 Rx   d 8 22 FB A7 37 06 67 0E D5  Length = 221910 BitCount = 115 ID = 1868
1815.378104 1  74C                                 Rx   d 8 23 89 CE 16 6F 8F B1 C1  Length = 223910 BitCount = 116 ID = 1868
1815.378337 1  74C                                 Rx   d 8 24 37 B4 DF 9C 2E 0F 45  Length = 223925 BitCount = 116 ID = 1868
1815.378569 1  74C                                 Rx   d 8 25 DE F7 FC D4 D4 EF 8C  Length = 223925 BitCount = 116 ID = 1868
1815.378807 1  74C                                 Rx   d 8 26 51 E8 2B EC 1E 60 12  Length = 229910 BitCount = 119 ID = 1868
1815.379037 1  74C                                 Rx   d 8 27 64 AC 8B 70 C1 07 38  Length = 221910 BitCount = 115 ID = 1868
1815.379269 1  74C                                 Rx   d 8 28 58 FC 1C ED F2 92 F5  Length = 223910 BitCount = 116 ID = 1868
1815.379495 1  74C                                 Rx   d 8 29 8E 61 5D 78 CE 69 A6  Length = 217910 BitCount = 113 ID = 1868
1815.379723 1  74C                                 Rx   d 8 2A 58 51 39 93 4D 7D 2E  Length = 219910 BitCount = 114 ID = 1868
1815.379953 1  74C                                 Rx   d 8 2B 23 4E 82 FE 16 BB 7B  Length = 221910 BitCount = 115 ID = 1868
1815.380184 1  74C                                 Rx   d 8 2C B0 02 C9 5C 53 27 8F  Length = 221925 BitCount = 115 ID = 1868
1815.380410 1  74C                                 Rx   d 8 2D E1 77 36 65 09 24 5D  Length = 217910 BitCount = 113 ID = 1868
1815.380638 1  74C                                 Rx   d 8 2E CC E4 56 DD 7F C4 46  Length = 219910 BitCount = 114 ID = 1868
1815.380872 1  74C                                 Rx   d 8 2F 7E 0A F9 76 16 18 0E  Length = 225910 BitCount = 117 ID = 1868
1815.381100 1  74C                                 Rx   d 8 20 EC F2 E5 AE 96 4D B8  Length = 219910 BitCount = 114 ID = 1868
1815.381330 1  74C                                 Rx   d 8 21 0F 2A B2 0D 8E 7C 5A  Length = 221910 BitCount = 115 ID = 1868
1815.381566 1  74C                                 Rx   d 8 22 BD 1F 83 DB 90 2D 62  Length = 227910 BitCount = 118 ID = 1868
1815.381796 1  74C                                 Rx   d 8 23 3C 65 55 0F 19 BF C2  Length = 221925 BitCount = 115 ID = 1868
1815.382029 1  74C                                 Rx   d 8 24 29 78 4F 40 72 82 AB  Length = 223910 BitCount = 116 ID = 1868
1815.382261 1  74C                                 Rx   d 8 25 37 47 67 82 BF 36 48  Length = 223910 BitCount = 116 ID = 1868
1815.382495 1  74C                                 Rx   d 8 26 53 F3 FC EA B7 E5 82  Length = 225910 BitCount = 117 ID = 1868
1815.382735 1  74C                                 Rx   d 8 27 2E F7 E7 67 C0 F7 C8  Length = 231910 BitCount = 120 ID = 1868
1815.382963 1  74C                                 Rx   d 8 28 62 AB 81 4B 51 49 48  Length = 219910 BitCount = 114 ID = 1868
1815.383195 1  74C                                 Rx   d 8 29 D4 14 83 D6 84 EC 3A  Length = 223910 BitCount = 116 ID = 1868
1815.383425 1  74C                                 Rx   d 8 2A FA 59 92 AE A8 15 D8  Length = 221925 BitCount = 115 ID = 1868
1815.383655 1  74C                                 Rx   d 8 2B BC 3F 15 EE 02 A8 9B  Length = 221910 BitCount = 115 ID = 1868
